date Sun Aug 30 12:00:00.000 2026
base hex  timestamps absolute
internal events logged
// SigMixa comprehensive showcase
// Accelerate, cruise, turn, brake and stop with mixed-rate Classic CAN and CAN FD.
// Two sample Plugins share 0x2A0; the 30.001s 0xEE marker demonstrates error isolation.
// CAN FD 184 encodes synchronized X/Y/Z, heading, yaw rate and lateral acceleration.
   0.000000 1  123             Rx   d 8 00 00 00 00 AA 55 00 00
   0.001000 CANFD   1 Rx 2A0 VehicleDynamics 1 0 F 64 00 00 EC 04 30 0C 18 01 46 03 70 01 D0 12 13 00 00 00 00 00 00 00 00 00 00 00 00 00 00 00 00 00 00 00 00 00 00 00 00 00 8A 02 00 00 00 00 00 00 00 00 00 00 00 00 00 00 00 00 00 00 00 00 00 A5
   0.002000 CANFD   1 Rx 182 CompactStatus 1 0 8 8 00 00 00 5A 00 00 00 00
   0.003000 1  300             Rx   d 8 00 00 00 00 00 00 00 00
   0.004000 CANFD 2 Rx 184 Fd16Telemetry 1 0 A 16 00 00 00 00 B0 04 02 00 01 00 0A 00 66 09 00 00
   0.005000 1  310             Tx   d 8 00 80 01 3E 00 00 00 00
   0.006000 2  18FF50E5x       Rx   d 8 3E F0 03 64 05 B0 04 00
   0.006500 2  5A0x            Rx   d 8 00 00 00 00 00 00 00 00
   0.007000 2  400             Rx   r 0
   0.050000 1  123             Rx   d 8 01 00 01 00 AA 55 01 00
   0.100000 1  123             Rx   d 8 02 00 01 00 AA 55 02 00
   0.101000 CANFD   1 Rx 2A0 VehicleDynamics 1 0 F 64 64 00 ED 04 95 10 1C 01 4E 03 70 03 D0 12 13 00 00 00 00 00 00 00 00 00 00 00 00 00 00 00 00 00 00 00 00 00 00 00 00 00 8B 02 00 00 00 00 00 00 00 00 00 00 00 00 00 00 00 00 00 00 00 00 00 A5
   0.102000 CANFD   1 Rx 182 CompactStatus 1 0 8 8 01 00 02 5A 00 00 00 00
   0.150000 1  123             Rx   d 8 03 00 02 00 AA 55 03 00
   0.200000 1  123             Rx   d 8 04 00 02 00 AA 55 04 00
   0.201000 CANFD   1 Rx 2A0 VehicleDynamics 1 0 F 64 C8 00 EE 04 2A 11 20 01 57 03 70 03 D0 12 13 00 00 00 00 00 00 00 00 00 00 00 00 00 00 00 00 00 00 00 00 00 00 00 00 00 8C 02 00 00 00 00 00 00 00 00 00 00 00 00 00 00 00 00 00 00 00 00 00 A5
   0.202000 CANFD   1 Rx 182 CompactStatus 1 0 8 8 02 00 04 5A 00 00 00 00
   0.250000 1  123             Rx   d 8 05 00 03 00 AA 55 05 00
   0.253000 1  300             Rx   d 8 00 00 00 00 FA 00 FA 00
   0.300000 1  123             Rx   d 8 06 00 03 00 AA 55 06 00
   0.301000 CANFD   1 Rx 2A0 VehicleDynamics 1 0 F 64 2C 01 EF 04 BE 11 24 01 5F 03 70 03 D0 12 13 00 00 00 00 00 00 00 00 00 00 00 00 00 00 00 00 00 00 00 00 00 00 00 00 00 8D 02 00 00 00 00 00 00 00 00 00 00 00 00 00 00 00 00 00 00 00 00 00 A5
   0.302000 CANFD   1 Rx 182 CompactStatus 1 0 8 8 03 00 06 5A 00 00 00 00
   0.350000 1  123             Rx   d 8 07 00 04 00 AA 55 07 00
   0.400000 1  123             Rx   d 8 08 00 04 00 AA 55 08 00
   0.401000 CANFD   1 Rx 2A0 VehicleDynamics 1 0 F 64 90 01 EF 04 53 12 28 01 68 03 70 03 D0 12 13 00 00 00 00 00 00 00 00 00 00 00 00 00 00 00 00 00 00 00 00 00 00 00 00 00 8E 02 00 00 00 00 00 00 00 00 00 00 00 00 00 00 00 00 00 00 00 00 00 A5
   0.402000 CANFD   1 Rx 182 CompactStatus 1 0 8 8 04 00 08 5A 00 00 00 00
   0.404000 CANFD 2 Rx 184 Fd16Telemetry 1 0 A 16 90 01 00 00 AA 04 CD 00 43 00 CC 03 66 09 2F 00
   0.450000 1  123             Rx   d 8 09 00 05 00 AA 55 09 00
   0.500000 1  123             Rx   d 8 0A 00 05 00 AA 55 0A 00
   0.501000 CANFD   1 Rx 2A0 VehicleDynamics 1 0 F 64 F4 01 F0 04 E8 12 2C 01 70 03 70 03 D0 12 13 00 00 00 00 00 00 00 00 00 00 00 00 00 00 00 00 00 00 00 00 00 00 00 00 00 8F 02 00 00 00 00 00 00 00 00 00 00 00 00 00 00 00 00 00 00 00 00 00 A5
   0.502000 CANFD   1 Rx 182 CompactStatus 1 0 8 8 05 00 0A 5A 00 00 00 00
   0.503000 1  300             Rx   d 8 00 00 00 00 F4 01 F4 01
   0.505000 1  310             Tx   d 8 00 80 03 3E 00 00 00 00
   0.550000 1  123             Rx   d 8 0B 00 06 00 AA 55 0B 00
   0.600000 1  123             Rx   d 8 0C 00 06 00 AA 55 0C 00
   0.601000 CANFD   1 Rx 2A0 VehicleDynamics 1 0 F 64 58 02 F1 04 7D 13 30 01 78 03 70 03 D0 12 13 00 00 00 00 00 00 00 00 00 00 00 00 00 00 00 00 00 00 00 00 00 00 00 00 00 90 02 00 00 00 00 00 00 00 00 00 00 00 00 00 00 00 00 00 00 00 00 00 A5
   0.602000 CANFD   1 Rx 182 CompactStatus 1 0 8 8 06 00 0C 5A 00 00 00 00
   0.650000 1  123             Rx   d 8 0D 00 07 00 AA 55 0D 00
   0.700000 1  123             Rx   d 8 0E 00 07 00 AA 55 0E 00
   0.701000 CANFD   1 Rx 2A0 VehicleDynamics 1 0 F 64 BC 02 F2 04 12 14 34 01 81 03 71 03 D0 12 13 00 00 00 00 00 00 00 00 00 00 00 00 00 00 00 00 00 00 00 00 00 00 00 00 00 91 02 00 00 00 00 00 00 00 00 00 00 00 00 00 00 00 00 00 00 00 00 00 A5
   0.702000 CANFD   1 Rx 182 CompactStatus 1 0 8 8 07 00 0E 5A 00 00 00 00
   0.750000 1  123             Rx   d 8 0F 00 08 00 AA 55 0F 00
   0.753000 1  300             Rx   d 8 00 00 00 00 EE 02 EE 02
   0.800000 1  123             Rx   d 8 10 00 08 00 AA 55 10 00
   0.801000 CANFD   1 Rx 2A0 VehicleDynamics 1 0 F 64 20 03 F3 04 A6 14 38 01 89 03 71 03 D0 12 13 00 00 00 00 00 00 00 00 00 00 00 00 00 00 00 00 00 00 00 00 00 00 00 00 00 92 02 00 00 00 00 00 00 00 00 00 00 00 00 00 00 00 00 00 00 00 00 00 A5
   0.802000 CANFD   1 Rx 182 CompactStatus 1 0 8 8 08 00 10 5A 00 00 00 00
   0.804000 CANFD 2 Rx 184 Fd16Telemetry 1 0 A 16 20 03 00 00 81 04 95 01 85 00 8F 07 66 09 5D 00
   0.850000 1  123             Rx   d 8 11 00 09 00 AA 55 00 00
   0.900000 1  123             Rx   d 8 12 00 09 00 AA 55 01 00
   0.901000 CANFD   1 Rx 2A0 VehicleDynamics 1 0 F 64 84 03 F4 04 3B 15 3C 01 92 03 71 03 D0 12 13 00 00 00 00 00 00 00 00 00 00 00 00 00 00 00 00 00 00 00 00 00 00 00 00 00 93 02 00 00 00 00 00 00 00 00 00 00 00 00 00 00 00 00 00 00 00 00 00 A5
   0.902000 CANFD   1 Rx 182 CompactStatus 1 0 8 8 09 00 12 5A 00 00 00 00
   0.950000 1  123             Rx   d 8 13 00 0A 00 AA 55 02 00
   1.000000 1  123             Rx   d 8 14 00 0A 00 AA 55 03 00
   1.001000 CANFD   1 Rx 2A0 VehicleDynamics 1 0 F 64 E8 03 F5 04 D0 15 40 01 9A 03 71 03 D0 12 13 00 00 00 00 00 00 00 00 00 00 00 00 00 00 00 00 00 00 00 00 00 00 00 00 00 95 02 00 00 00 00 00 00 00 00 00 00 00 00 00 00 00 00 00 00 00 00 00 A5
   1.002000 CANFD   1 Rx 182 CompactStatus 1 0 8 8 0A 00 14 5A 00 00 00 00
   1.003000 1  300             Rx   d 8 00 00 00 00 E8 03 E8 03
   1.005000 1  310             Tx   d 8 00 20 03 3E 00 00 00 00
   1.006000 2  18FF50E5x       Rx   d 8 3E F1 03 69 05 BF 04 01
   1.006500 2  5A0x            Rx   d 8 00 00 00 00 8B 00 00 00
   1.050000 1  123             Rx   d 8 15 00 0B 00 AA 55 04 00
   1.100000 1  123             Rx   d 8 16 00 0B 00 AA 55 05 00
   1.101000 CANFD   1 Rx 2A0 VehicleDynamics 1 0 F 64 4C 04 F6 04 65 16 44 01 A2 03 71 03 D0 12 13 00 00 00 00 00 00 00 00 00 00 00 00 00 00 00 00 00 00 00 00 00 00 00 00 00 96 02 00 00 00 00 00 00 00 00 00 00 00 00 00 00 00 00 00 00 00 00 00 A5
   1.102000 CANFD   1 Rx 182 CompactStatus 1 0 8 8 0B 00 16 5A 00 00 00 00
   1.150000 1  123             Rx   d 8 17 00 0C 00 AA 55 06 00
   1.200000 1  123             Rx   d 8 18 00 0C 00 AA 55 07 00
   1.201000 CANFD   1 Rx 2A0 VehicleDynamics 1 0 F 64 B0 04 F6 04 FA 16 48 01 AB 03 71 03 D0 12 13 00 00 00 00 00 00 00 00 00 00 00 00 00 00 00 00 00 00 00 00 00 00 00 00 00 97 02 00 00 00 00 00 00 00 00 00 00 00 00 00 00 00 00 00 00 00 00 00 A5
   1.202000 CANFD   1 Rx 182 CompactStatus 1 0 8 8 0C 00 18 5A 00 00 00 00
   1.204000 CANFD 2 Rx 184 Fd16Telemetry 1 0 A 16 B0 04 00 00 37 04 56 02 C7 00 51 0B 66 09 88 00
   1.250000 1  123             Rx   d 8 19 00 0D 00 AA 55 08 00
   1.253000 1  300             Rx   d 8 00 00 00 00 E2 04 E2 04
   1.300000 1  123             Rx   d 8 1A 00 0D 00 AA 55 09 00
   1.301000 CANFD   1 Rx 2A0 VehicleDynamics 1 0 F 64 14 05 F7 04 8E 17 4C 01 B3 03 71 03 D0 12 13 00 00 00 00 00 00 00 00 00 00 00 00 00 00 00 00 00 00 00 00 00 00 00 00 00 98 02 00 00 00 00 00 00 00 00 00 00 00 00 00 00 00 00 00 00 00 00 00 A5
   1.302000 CANFD   1 Rx 182 CompactStatus 1 0 8 8 0D 00 1A 5A 00 00 00 00
   1.350000 1  123             Rx   d 8 1B 00 0E 00 AA 55 0A 00
   1.400000 1  123             Rx   d 8 1C 00 0E 00 AA 55 0B 00
   1.401000 CANFD   1 Rx 2A0 VehicleDynamics 1 0 F 64 78 05 F8 04 23 18 50 01 BC 03 71 03 D0 12 13 00 00 00 00 00 00 00 00 00 00 00 00 00 00 00 00 00 00 00 00 00 00 00 00 00 99 02 00 00 00 00 00 00 00 00 00 00 00 00 00 00 00 00 00 00 00 00 00 A5
   1.402000 CANFD   1 Rx 182 CompactStatus 1 0 8 8 0E 00 1C 5A 00 00 00 00
   1.450000 1  123             Rx   d 8 1D 00 0F 00 AA 55 0C 00
   1.500000 1  123             Rx   d 8 1E 00 0F 00 AA 55 0D 00
   1.501000 CANFD   1 Rx 2A0 VehicleDynamics 1 0 F 64 DC 05 F9 04 B8 18 54 01 C4 03 71 03 D0 12 13 00 00 00 00 00 00 00 00 00 00 00 00 00 00 00 00 00 00 00 00 00 00 00 00 00 9A 02 00 00 00 00 00 00 00 00 00 00 00 00 00 00 00 00 00 00 00 00 00 A5
   1.502000 CANFD   1 Rx 182 CompactStatus 1 0 8 8 0F 00 1E 5A 00 00 00 00
   1.503000 1  300             Rx   d 8 00 00 00 00 DC 05 DC 05
   1.505000 1  310             Tx   d 8 00 20 03 3E 00 00 00 00
   1.550000 1  123             Rx   d 8 1F 00 10 00 AA 55 0E 00
   1.600000 1  123             Rx   d 8 20 00 10 00 AA 55 0F 00
   1.601000 CANFD   1 Rx 2A0 VehicleDynamics 1 0 F 64 40 06 FA 04 4D 19 58 01 CC 03 71 03 D0 12 13 00 00 00 00 00 00 00 00 00 00 00 00 00 00 00 00 00 00 00 00 00 00 00 00 00 9B 02 00 00 00 00 00 00 00 00 00 00 00 00 00 00 00 00 00 00 00 00 00 A5
   1.602000 CANFD   1 Rx 182 CompactStatus 1 0 8 8 10 00 20 5A 00 00 00 00
   1.604000 CANFD 2 Rx 184 Fd16Telemetry 1 0 A 16 40 06 00 00 CD 03 09 03 07 01 14 0F 66 09 AF 00
   1.650000 1  123             Rx   d 8 21 00 11 00 AA 55 10 00
   1.700000 1  123             Rx   d 8 22 00 11 00 AA 55 00 00
   1.701000 CANFD   1 Rx 2A0 VehicleDynamics 1 0 F 64 A4 06 FA 04 E2 19 5C 01 D5 03 71 03 D0 12 13 00 00 00 00 00 00 00 00 00 00 00 00 00 00 00 00 00 00 00 00 00 00 00 00 00 9C 02 00 00 00 00 00 00 00 00 00 00 00 00 00 00 00 00 00 00 00 00 00 A5
   1.702000 CANFD   1 Rx 182 CompactStatus 1 0 8 8 11 00 22 5A 00 00 00 00
   1.750000 1  123             Rx   d 8 23 00 12 00 AA 55 01 00
   1.753000 1  300             Rx   d 8 00 00 00 00 D6 06 D6 06
   1.800000 1  123             Rx   d 8 24 00 12 00 AA 55 02 00
   1.801000 CANFD   1 Rx 2A0 VehicleDynamics 1 0 F 64 08 07 FB 04 76 1A 60 01 DD 03 71 03 D0 12 13 00 00 00 00 00 00 00 00 00 00 00 00 00 00 00 00 00 00 00 00 00 00 00 00 00 9D 02 00 00 00 00 00 00 00 00 00 00 00 00 00 00 00 00 00 00 00 00 00 A5
   1.802000 CANFD   1 Rx 182 CompactStatus 1 0 8 8 12 00 24 5A 00 00 00 00
   1.850000 1  123             Rx   d 8 25 00 13 00 AA 55 03 00
   1.900000 1  123             Rx   d 8 26 00 13 00 AA 55 04 00
   1.901000 CANFD   1 Rx 2A0 VehicleDynamics 1 0 F 64 6C 07 FC 04 0B 1B 64 01 E6 03 71 03 D0 12 13 00 00 00 00 00 00 00 00 00 00 00 00 00 00 00 00 00 00 00 00 00 00 00 00 00 9E 02 00 00 00 00 00 00 00 00 00 00 00 00 00 00 00 00 00 00 00 00 00 A5
   1.902000 CANFD   1 Rx 182 CompactStatus 1 0 8 8 13 00 26 5A 00 00 00 00
   1.950000 1  123             Rx   d 8 27 00 14 00 AA 55 05 00
   2.000000 1  123             Rx   d 8 28 00 14 00 AA 55 06 00
   2.001000 CANFD   1 Rx 2A0 VehicleDynamics 1 0 F 64 D0 07 FD 04 A0 1B 68 01 EE 03 72 03 D0 12 13 00 00 00 00 00 00 00 00 00 00 00 00 00 00 00 00 00 00 00 00 00 00 00 00 00 9F 02 00 00 00 00 00 00 00 00 00 00 00 00 00 00 00 00 00 00 00 00 00 A5
   2.002000 CANFD   1 Rx 182 CompactStatus 1 0 8 8 14 00 28 5A 00 00 00 00
   2.003000 1  300             Rx   d 8 00 00 00 00 D0 07 D0 07
   2.004000 CANFD 2 Rx 184 Fd16Telemetry 1 0 A 16 D0 07 00 00 45 03 A9 03 46 01 D6 12 66 09 D1 00
   2.005000 1  310             Tx   d 8 00 20 03 3E 00 00 00 00
   2.006000 2  18FF50E5x       Rx   d 8 3E F2 03 6E 05 CE 04 02
   2.006500 2  5A0x            Rx   d 8 00 00 00 00 11 01 00 00
   2.007000 2  400             Rx   r 0
   2.050000 1  123             Rx   d 8 29 00 15 00 AA 55 07 00
   2.100000 1  123             Rx   d 8 2A 00 15 00 AA 55 08 00
   2.101000 CANFD   1 Rx 2A0 VehicleDynamics 1 0 F 64 34 08 FE 04 35 1C 6C 01 F6 03 72 03 D0 12 13 00 00 00 00 00 00 00 00 00 00 00 00 00 00 00 00 00 00 00 00 00 00 00 00 00 A0 02 00 00 00 00 00 00 00 00 00 00 00 00 00 00 00 00 00 00 00 00 00 A5
   2.102000 CANFD   1 Rx 182 CompactStatus 1 0 8 8 15 00 2A 5A 00 00 00 00
   2.150000 1  123             Rx   d 8 2B 00 16 00 AA 55 09 00
   2.200000 1  123             Rx   d 8 2C 00 16 00 AA 55 0A 00
   2.201000 CANFD   1 Rx 2A0 VehicleDynamics 1 0 F 64 98 08 FE 04 CA 1C 70 01 FF 03 72 03 D0 12 13 00 00 00 00 00 00 00 00 00 00 00 00 00 00 00 00 00 00 00 00 00 00 00 00 00 A1 02 00 00 00 00 00 00 00 00 00 00 00 00 00 00 00 00 00 00 00 00 00 A5
   2.202000 CANFD   1 Rx 182 CompactStatus 1 0 8 8 16 00 2C 5A 00 00 00 00
   2.250000 1  123             Rx   d 8 2D 00 17 00 AA 55 0B 00
   2.253000 1  300             Rx   d 8 00 00 00 00 CA 08 CA 08
   2.300000 1  123             Rx   d 8 2E 00 17 00 AA 55 0C 00
   2.301000 CANFD   1 Rx 2A0 VehicleDynamics 1 0 F 64 FC 08 FF 04 5E 1D 74 01 07 04 72 03 D0 12 13 00 00 00 00 00 00 00 00 00 00 00 00 00 00 00 00 00 00 00 00 00 00 00 00 00 A2 02 00 00 00 00 00 00 00 00 00 00 00 00 00 00 00 00 00 00 00 00 00 A5
   2.302000 CANFD   1 Rx 182 CompactStatus 1 0 8 8 17 00 2E 5A 00 00 00 00
   2.350000 1  123             Rx   d 8 2F 00 18 00 AA 55 0D 00
   2.400000 1  123             Rx   d 8 30 00 18 00 AA 55 0E 00
   2.401000 CANFD   1 Rx 2A0 VehicleDynamics 1 0 F 64 60 09 00 05 F3 1D 78 01 10 04 72 03 D0 12 13 00 00 00 00 00 00 00 00 00 00 00 00 00 00 00 00 00 00 00 00 00 00 00 00 00 A3 02 00 00 00 00 00 00 00 00 00 00 00 00 00 00 00 00 00 00 00 00 00 A5
   2.402000 CANFD   1 Rx 182 CompactStatus 1 0 8 8 18 00 30 5A 00 00 00 00
   2.404000 CANFD 2 Rx 184 Fd16Telemetry 1 0 A 16 60 09 00 00 A2 02 31 04 84 01 99 16 66 09 ED 00
   2.450000 1  123             Rx   d 8 31 00 19 00 AA 55 0F 00
   2.500000 1  123             Rx   d 8 32 00 19 00 AA 55 10 00
   2.501000 CANFD   1 Rx 2A0 VehicleDynamics 1 0 F 64 C4 09 00 05 88 1E 7C 01 18 04 72 03 D0 12 13 00 00 00 00 00 00 00 00 00 00 00 00 00 00 00 00 00 00 00 00 00 00 00 00 00 A4 02 00 00 00 00 00 00 00 00 00 00 00 00 00 00 00 00 00 00 00 00 00 A5
   2.502000 CANFD   1 Rx 182 CompactStatus 1 0 8 8 19 00 32 5A 00 00 00 00
   2.503000 1  300             Rx   d 8 00 00 00 00 C4 09 C4 09
   2.505000 1  310             Tx   d 8 00 20 03 3F 00 00 00 00
   2.550000 1  123             Rx   d 8 33 00 1A 00 AA 55 00 00
   2.600000 1  123             Rx   d 8 34 00 1A 00 AA 55 01 00
   2.601000 CANFD   1 Rx 2A0 VehicleDynamics 1 0 F 64 28 0A 01 05 1D 1F 80 01 20 04 72 03 D0 12 13 00 00 00 00 00 00 00 00 00 00 00 00 00 00 00 00 00 00 00 00 00 00 00 00 00 A5 02 00 00 00 00 00 00 00 00 00 00 00 00 00 00 00 00 00 00 00 00 00 A5
   2.602000 CANFD   1 Rx 182 CompactStatus 1 0 8 8 1A 00 34 5A 00 00 00 00
   2.650000 1  123             Rx   d 8 35 00 1B 00 AA 55 02 00
   2.700000 1  123             Rx   d 8 36 00 1B 00 AA 55 03 00
   2.701000 CANFD   1 Rx 2A0 VehicleDynamics 1 0 F 64 8C 0A 02 05 B2 1F 84 01 29 04 72 03 D0 12 13 00 00 00 00 00 00 00 00 00 00 00 00 00 00 00 00 00 00 00 00 00 00 00 00 00 A6 02 00 00 00 00 00 00 00 00 00 00 00 00 00 00 00 00 00 00 00 00 00 A5
   2.702000 CANFD   1 Rx 182 CompactStatus 1 0 8 8 1B 00 36 5A 00 00 00 00
   2.750000 1  123             Rx   d 8 37 00 1C 00 AA 55 04 00
   2.753000 1  300             Rx   d 8 00 00 00 00 BE 0A BE 0A
   2.800000 1  123             Rx   d 8 38 00 1C 00 AA 55 05 00
   2.801000 CANFD   1 Rx 2A0 VehicleDynamics 1 0 F 64 F0 0A 03 05 46 20 88 01 31 04 72 03 D0 12 13 00 00 00 00 00 00 00 00 00 00 00 00 00 00 00 00 00 00 00 00 00 00 00 00 00 A7 02 00 00 00 00 00 00 00 00 00 00 00 00 00 00 00 00 00 00 00 00 00 A5
   2.802000 CANFD   1 Rx 182 CompactStatus 1 0 8 8 1C 00 38 5A 00 00 00 00
   2.804000 CANFD 2 Rx 184 Fd16Telemetry 1 0 A 16 F0 0A 00 00 EA 01 9D 04 C1 01 5C 1A 66 09 03 01
   2.850000 1  123             Rx   d 8 39 00 1D 00 AA 55 06 00
   2.900000 1  123             Rx   d 8 3A 00 1D 00 AA 55 07 00
   2.901000 CANFD   1 Rx 2A0 VehicleDynamics 1 0 F 64 54 0B 03 05 DB 20 8C 01 3A 04 72 03 D0 12 13 00 00 00 00 00 00 00 00 00 00 00 00 00 00 00 00 00 00 00 00 00 00 00 00 00 A8 02 00 00 00 00 00 00 00 00 00 00 00 00 00 00 00 00 00 00 00 00 00 A5
   2.902000 CANFD   1 Rx 182 CompactStatus 1 0 8 8 1D 00 3A 5A 00 00 00 00
   2.950000 1  123             Rx   d 8 3B 00 1E 00 AA 55 08 00
   3.000000 1  123             Rx   d 8 3C 00 1E 00 AA 55 09 00
   3.001000 CANFD   1 Rx 2A0 VehicleDynamics 1 0 F 64 B8 0B 04 05 70 21 90 01 42 04 72 03 D0 12 13 00 00 00 00 00 00 00 00 00 00 00 00 00 00 00 00 00 00 00 00 00 00 00 00 00 A9 02 00 00 00 00 00 00 00 00 00 00 00 00 00 00 00 00 00 00 00 00 00 A5
   3.002000 CANFD   1 Rx 182 CompactStatus 1 0 8 8 1E 00 3C 5A 00 00 00 00
   3.003000 1  300             Rx   d 8 00 00 00 00 B8 0B B8 0B
   3.005000 1  310             Tx   d 8 00 20 03 3F 00 00 00 00
   3.006000 2  18FF50E5x       Rx   d 8 3E F3 03 72 05 DC 04 03
   3.006500 2  5A0x            Rx   d 8 00 00 00 00 8B 01 00 00
   3.050000 1  123             Rx   d 8 3D 00 1F 00 AA 55 0A 00
   3.100000 1  123             Rx   d 8 3E 00 1F 00 AA 55 0B 00
   3.101000 CANFD   1 Rx 2A0 VehicleDynamics 1 0 F 64 1C 0C 04 05 05 22 94 01 4A 04 72 03 D0 12 13 00 00 00 00 00 00 00 00 00 00 00 00 00 00 00 00 00 00 00 00 00 00 00 00 00 AA 02 00 00 00 00 00 00 00 00 00 00 00 00 00 00 00 00 00 00 00 00 00 A5
   3.102000 CANFD   1 Rx 182 CompactStatus 1 0 8 8 1F 00 3E 5A 00 00 00 00
   3.150000 1  123             Rx   d 8 3F 00 20 00 AA 55 0C 00
   3.200000 1  123             Rx   d 8 40 00 20 00 AA 55 0D 00
   3.201000 CANFD   1 Rx 2A0 VehicleDynamics 1 0 F 64 80 0C 05 05 9A 22 98 01 53 04 72 03 D0 12 13 00 00 00 00 00 00 00 00 00 00 00 00 00 00 00 00 00 00 00 00 00 00 00 00 00 AB 02 00 00 00 00 00 00 00 00 00 00 00 00 00 00 00 00 00 00 00 00 00 A5
   3.202000 CANFD   1 Rx 182 CompactStatus 1 0 8 8 20 00 40 5A 00 00 00 00
   3.204000 CANFD 2 Rx 184 Fd16Telemetry 1 0 A 16 80 0C 00 00 20 01 E9 04 FB 01 1E 1E 66 09 11 01
   3.250000 1  123             Rx   d 8 41 00 21 00 AA 55 0E 00
   3.253000 1  300             Rx   d 8 00 00 00 00 B2 0C B2 0C
   3.300000 1  123             Rx   d 8 42 00 21 00 AA 55 0F 00
   3.301000 CANFD   1 Rx 2A0 VehicleDynamics 1 0 F 64 E4 0C 06 05 2E 23 9C 01 5B 04 73 03 D0 12 13 00 00 00 00 00 00 00 00 00 00 00 00 00 00 00 00 00 00 00 00 00 00 00 00 00 AC 02 00 00 00 00 00 00 00 00 00 00 00 00 00 00 00 00 00 00 00 00 00 A5
   3.302000 CANFD   1 Rx 182 CompactStatus 1 0 8 8 21 00 42 5A 00 00 00 00
   3.350000 1  123             Rx   d 8 43 00 22 00 AA 55 10 00
   3.400000 1  123             Rx   d 8 44 00 22 00 AA 55 00 00
   3.401000 CANFD   1 Rx 2A0 VehicleDynamics 1 0 F 64 48 0D 06 05 C3 23 A0 01 64 04 73 03 D0 12 13 00 00 00 00 00 00 00 00 00 00 00 00 00 00 00 00 00 00 00 00 00 00 00 00 00 AD 02 00 00 00 00 00 00 00 00 00 00 00 00 00 00 00 00 00 00 00 00 00 A5
   3.402000 CANFD   1 Rx 182 CompactStatus 1 0 8 8 22 00 44 5A 00 00 00 00
   3.450000 1  123             Rx   d 8 45 00 23 00 AA 55 01 00
   3.500000 1  123             Rx   d 8 46 00 23 00 AA 55 02 00
   3.501000 CANFD   1 Rx 2A0 VehicleDynamics 1 0 F 64 AC 0D 07 05 58 24 A4 01 6C 04 73 03 D0 12 13 00 00 00 00 00 00 00 00 00 00 00 00 00 00 00 00 00 00 00 00 00 00 00 00 00 AE 02 00 00 00 00 00 00 00 00 00 00 00 00 00 00 00 00 00 00 00 00 00 A5
   3.502000 CANFD   1 Rx 182 CompactStatus 1 0 8 8 23 00 46 5A 00 00 00 00
   3.503000 1  300             Rx   d 8 00 00 00 00 AC 0D AC 0D
   3.505000 1  310             Tx   d 8 00 20 03 3F 00 00 00 00
   3.550000 1  123             Rx   d 8 47 00 24 00 AA 55 03 00
   3.600000 1  123             Rx   d 8 48 00 24 00 AA 55 04 00
   3.601000 CANFD   1 Rx 2A0 VehicleDynamics 1 0 F 64 10 0E 07 05 ED 24 A8 01 74 04 73 03 D0 12 13 00 00 00 00 00 00 00 00 00 00 00 00 00 00 00 00 00 00 00 00 00 00 00 00 00 AF 02 00 00 00 00 00 00 00 00 00 00 00 00 00 00 00 00 00 00 00 00 00 A5
   3.602000 CANFD   1 Rx 182 CompactStatus 1 0 8 8 24 00 48 5A 00 00 00 00
   3.604000 CANFD 2 Rx 184 Fd16Telemetry 1 0 A 16 10 0E 00 00 4A 00 13 05 33 02 E1 21 66 09 18 01
   3.650000 1  123             Rx   d 8 49 00 25 00 AA 55 05 00
   3.700000 1  123             Rx   d 8 4A 00 25 00 AA 55 06 00
   3.701000 CANFD   1 Rx 2A0 VehicleDynamics 1 0 F 64 74 0E 08 05 82 25 AC 01 7D 04 73 03 D0 12 13 00 00 00 00 00 00 00 00 00 00 00 00 00 00 00 00 00 00 00 00 00 00 00 00 00 B0 02 00 00 00 00 00 00 00 00 00 00 00 00 00 00 00 00 00 00 00 00 00 A5
   3.702000 CANFD   1 Rx 182 CompactStatus 1 0 8 8 25 00 4A 5A 00 00 00 00
   3.750000 1  123             Rx   d 8 4B 00 26 00 AA 55 07 00
   3.753000 1  300             Rx   d 8 00 00 00 00 A6 0E A6 0E
   3.800000 1  123             Rx   d 8 4C 00 26 00 AA 55 08 00
   3.801000 CANFD   1 Rx 2A0 VehicleDynamics 1 0 F 64 D8 0E 08 05 16 26 B0 01 85 04 73 03 D0 12 13 00 00 00 00 00 00 00 00 00 00 00 00 00 00 00 00 00 00 00 00 00 00 00 00 00 B1 02 00 00 00 00 00 00 00 00 00 00 00 00 00 00 00 00 00 00 00 00 00 A5
   3.802000 CANFD   1 Rx 182 CompactStatus 1 0 8 8 26 00 4C 5A 00 00 00 00
   3.850000 1  123             Rx   d 8 4D 00 27 00 AA 55 09 00
   3.900000 1  123             Rx   d 8 4E 00 27 00 AA 55 0A 00
   3.901000 CANFD   1 Rx 2A0 VehicleDynamics 1 0 F 64 3C 0F 09 05 AB 26 B4 01 8E 04 73 03 D0 12 13 00 00 00 00 00 00 00 00 00 00 00 00 00 00 00 00 00 00 00 00 00 00 00 00 00 B2 02 00 00 00 00 00 00 00 00 00 00 00 00 00 00 00 00 00 00 00 00 00 A5
   3.902000 CANFD   1 Rx 182 CompactStatus 1 0 8 8 27 00 4E 5A 00 00 00 00
   3.950000 1  123             Rx   d 8 4F 00 28 00 AA 55 0B 00
   4.000000 1  123             Rx   d 8 50 00 28 00 AA 55 0C 00
   4.001000 CANFD   1 Rx 2A0 VehicleDynamics 1 0 F 64 A0 0F 09 05 40 27 B8 01 96 04 73 03 D0 12 13 00 00 00 00 00 00 00 00 00 00 00 00 00 00 00 00 00 00 00 00 00 00 00 00 00 B3 02 00 00 00 00 00 00 00 00 00 00 00 00 00 00 00 00 00 00 00 00 00 A5
   4.002000 CANFD   1 Rx 182 CompactStatus 1 0 8 8 28 00 50 5A 00 00 00 00
   4.003000 1  300             Rx   d 8 00 00 00 00 A0 0F A0 0F
   4.004000 CANFD 2 Rx 184 Fd16Telemetry 1 0 A 16 A0 0F 00 00 6F FF 18 05 68 02 A3 25 66 09 16 01
   4.005000 1  310             Tx   d 8 00 20 03 3F 00 00 00 00
   4.006000 2  18FF50E5x       Rx   d 8 3E F4 03 76 05 EA 04 04
   4.006500 2  5A0x            Rx   d 8 00 00 00 00 F6 01 00 00
   4.007000 2  400             Rx   r 0
   4.050000 1  123             Rx   d 8 51 00 29 00 AA 55 0D 00
   4.100000 1  123             Rx   d 8 52 00 29 00 AA 55 0E 00
   4.101000 CANFD   1 Rx 2A0 VehicleDynamics 1 0 F 64 04 10 0A 05 D5 27 BC 01 9E 04 73 03 D0 12 13 00 00 00 00 00 00 00 00 00 00 00 00 00 00 00 00 00 00 00 00 00 00 00 00 00 B4 02 00 00 00 00 00 00 00 00 00 00 00 00 00 00 00 00 00 00 00 00 00 A5
   4.102000 CANFD   1 Rx 182 CompactStatus 1 0 8 8 29 00 52 5A 00 00 00 00
   4.150000 1  123             Rx   d 8 53 00 2A 00 AA 55 0F 00
   4.200000 1  123             Rx   d 8 54 00 2A 00 AA 55 10 00
   4.201000 CANFD   1 Rx 2A0 VehicleDynamics 1 0 F 64 68 10 0A 05 6A 28 C0 01 A7 04 73 03 D0 12 13 00 00 00 00 00 00 00 00 00 00 00 00 00 00 00 00 00 00 00 00 00 00 00 00 00 B5 02 00 00 00 00 00 00 00 00 00 00 00 00 00 00 00 00 00 00 00 00 00 A5
   4.202000 CANFD   1 Rx 182 CompactStatus 1 0 8 8 2A 00 54 5A 00 00 00 00
   4.250000 1  123             Rx   d 8 55 00 2B 00 AA 55 00 00
   4.253000 1  300             Rx   d 8 00 00 00 00 9A 10 9A 10
   4.300000 1  123             Rx   d 8 56 00 2B 00 AA 55 01 00
   4.301000 CANFD   1 Rx 2A0 VehicleDynamics 1 0 F 64 CC 10 0B 05 FE 28 C4 01 AF 04 73 03 D1 12 13 00 00 00 00 00 00 00 00 00 00 00 00 00 00 00 00 00 00 00 00 00 00 00 00 00 B6 02 00 00 00 00 00 00 00 00 00 00 00 00 00 00 00 00 00 00 00 00 00 A5
   4.302000 CANFD   1 Rx 182 CompactStatus 1 0 8 8 2B 00 56 5A 00 00 00 00
   4.350000 1  123             Rx   d 8 57 00 2C 00 AA 55 02 00
   4.400000 1  123             Rx   d 8 58 00 2C 00 AA 55 03 00
   4.401000 CANFD   1 Rx 2A0 VehicleDynamics 1 0 F 64 30 11 0B 05 93 29 C8 01 B8 04 73 03 D1 12 13 00 00 00 00 00 00 00 00 00 00 00 00 00 00 00 00 00 00 00 00 00 00 00 00 00 B7 02 00 00 00 00 00 00 00 00 00 00 00 00 00 00 00 00 00 00 00 00 00 A5
   4.402000 CANFD   1 Rx 182 CompactStatus 1 0 8 8 2C 00 58 5A 00 00 00 00
   4.404000 CANFD 2 Rx 184 Fd16Telemetry 1 0 A 16 30 11 00 00 94 FE F8 04 9B 02 66 29 66 09 0D 01
   4.450000 1  123             Rx   d 8 59 00 2D 00 AA 55 04 00
   4.500000 1  123             Rx   d 8 5A 00 2D 00 AA 55 05 00
   4.501000 CANFD   1 Rx 2A0 VehicleDynamics 1 0 F 64 94 11 0C 05 28 2A CC 01 C0 04 73 03 D1 12 13 00 00 00 00 00 00 00 00 00 00 00 00 00 00 00 00 00 00 00 00 00 00 00 00 00 B8 02 00 00 00 00 00 00 00 00 00 00 00 00 00 00 00 00 00 00 00 00 00 A5
   4.502000 CANFD   1 Rx 182 CompactStatus 1 0 8 8 2D 00 5A 5A 00 00 00 00
   4.503000 1  300             Rx   d 8 00 00 00 00 94 11 94 11
   4.505000 1  310             Tx   d 8 00 20 03 3F 00 00 00 00
   4.550000 1  123             Rx   d 8 5B 00 2E 00 AA 55 06 00
   4.600000 1  123             Rx   d 8 5C 00 2E 00 AA 55 07 00
   4.601000 CANFD   1 Rx 2A0 VehicleDynamics 1 0 F 64 F8 11 0C 05 BD 2A D0 01 C8 04 73 03 D1 12 13 00 00 00 00 00 00 00 00 00 00 00 00 00 00 00 00 00 00 00 00 00 00 00 00 00 B9 02 00 00 00 00 00 00 00 00 00 00 00 00 00 00 00 00 00 00 00 00 00 A5
   4.602000 CANFD   1 Rx 182 CompactStatus 1 0 8 8 2E 00 5C 5A 00 00 00 00
   4.650000 1  123             Rx   d 8 5D 00 2F 00 AA 55 08 00
   4.700000 1  123             Rx   d 8 5E 00 2F 00 AA 55 09 00
   4.701000 CANFD   1 Rx 2A0 VehicleDynamics 1 0 F 64 5C 12 0C 05 52 2B D4 01 D1 04 74 03 D1 12 13 00 00 00 00 00 00 00 00 00 00 00 00 00 00 00 00 00 00 00 00 00 00 00 00 00 BA 02 00 00 00 00 00 00 00 00 00 00 00 00 00 00 00 00 00 00 00 00 00 A5
   4.702000 CANFD   1 Rx 182 CompactStatus 1 0 8 8 2F 00 5E 5A 00 00 00 00
   4.750000 1  123             Rx   d 8 5F 00 30 00 AA 55 0A 00
   4.753000 1  300             Rx   d 8 00 00 00 00 8E 12 8E 12
   4.800000 1  123             Rx   d 8 60 00 30 00 AA 55 0B 00
   4.801000 CANFD   1 Rx 2A0 VehicleDynamics 1 0 F 64 C0 12 0D 05 E6 2B D8 01 D9 04 74 03 D1 12 13 00 00 00 00 00 00 00 00 00 00 00 00 00 00 00 00 00 00 00 00 00 00 00 00 00 BB 02 00 00 00 00 00 00 00 00 00 00 00 00 00 00 00 00 00 00 00 00 00 A5
   4.802000 CANFD   1 Rx 182 CompactStatus 1 0 8 8 30 00 60 5A 00 00 00 00
   4.804000 CANFD 2 Rx 184 Fd16Telemetry 1 0 A 16 C0 12 00 00 BF FD B3 04 CA 02 28 2D 66 09 FD 00
   4.850000 1  123             Rx   d 8 61 00 31 00 AA 55 0C 00
   4.900000 1  123             Rx   d 8 62 00 31 00 AA 55 0D 00
   4.901000 CANFD   1 Rx 2A0 VehicleDynamics 1 0 F 64 24 13 0D 05 7B 2C DC 01 E2 04 74 03 D1 12 13 00 00 00 00 00 00 00 00 00 00 00 00 00 00 00 00 00 00 00 00 00 00 00 00 00 BC 02 00 00 00 00 00 00 00 00 00 00 00 00 00 00 00 00 00 00 00 00 00 A5
   4.902000 CANFD   1 Rx 182 CompactStatus 1 0 8 8 31 00 62 5A 00 00 00 00
   4.950000 1  123             Rx   d 8 63 00 32 00 AA 55 0E 00
   5.000000 1  123             Rx   d 8 64 00 32 00 AA 55 0F 00
   5.001000 CANFD   1 Rx 2A0 VehicleDynamics 1 0 F 64 88 13 0D 05 10 2D E0 01 EA 04 74 03 D1 12 13 00 00 00 00 00 00 00 00 00 00 00 00 00 00 00 00 00 00 00 00 00 00 00 00 00 BD 02 00 00 00 00 00 00 00 00 00 00 00 00 00 00 00 00 00 00 00 00 00 A5
   5.002000 CANFD   1 Rx 182 CompactStatus 1 0 8 8 32 00 64 5A 00 00 00 00
   5.003000 1  300             Rx   d 8 00 00 00 00 88 13 88 13
   5.005000 1  310             Tx   d 8 00 20 03 3F 00 00 00 00
   5.006000 2  18FF50E5x       Rx   d 8 3F F4 03 79 05 F8 04 05
   5.006500 2  5A0x            Rx   d 8 00 00 00 00 4D 02 00 00
   5.050000 1  123             Rx   d 8 65 00 33 00 AA 55 10 00
   5.100000 1  123             Rx   d 8 66 00 33 00 AA 55 00 00
   5.101000 CANFD   1 Rx 2A0 VehicleDynamics 1 0 F 64 EC 13 0D 05 A5 2D E4 01 F2 04 74 03 D1 12 13 00 00 00 00 00 00 00 00 00 00 00 00 00 00 00 00 00 00 00 00 00 00 00 00 00 BE 02 00 00 00 00 00 00 00 00 00 00 00 00 00 00 00 00 00 00 00 00 00 A5
   5.102000 CANFD   1 Rx 182 CompactStatus 1 0 8 8 33 00 66 5A 00 00 00 00
   5.150000 1  123             Rx   d 8 67 00 34 00 AA 55 01 00
   5.200000 1  123             Rx   d 8 68 00 34 00 AA 55 02 00
   5.201000 CANFD   1 Rx 2A0 VehicleDynamics 1 0 F 64 50 14 0E 05 3A 2E E8 01 FB 04 74 03 D1 12 13 00 00 00 00 00 00 00 00 00 00 00 00 00 00 00 00 00 00 00 00 00 00 00 00 00 BF 02 00 00 00 00 00 00 00 00 00 00 00 00 00 00 00 00 00 00 00 00 00 A5
   5.202000 CANFD   1 Rx 182 CompactStatus 1 0 8 8 34 00 68 5A 00 00 00 00
   5.204000 CANFD 2 Rx 184 Fd16Telemetry 1 0 A 16 50 14 00 00 F8 FC 4B 04 F7 02 EB 30 66 09 E5 00
   5.250000 1  123             Rx   d 8 69 00 35 00 AA 55 03 00
   5.253000 1  300             Rx   d 8 00 00 00 00 82 14 82 14
   5.300000 1  123             Rx   d 8 6A 00 35 00 AA 55 04 00
   5.301000 CANFD   1 Rx 2A0 VehicleDynamics 1 0 F 64 B4 14 0E 05 CE 2E EC 01 03 05 74 03 D1 12 13 00 00 00 00 00 00 00 00 00 00 00 00 00 00 00 00 00 00 00 00 00 00 00 00 00 C0 02 00 00 00 00 00 00 00 00 00 00 00 00 00 00 00 00 00 00 00 00 00 A5
   5.302000 CANFD   1 Rx 182 CompactStatus 1 0 8 8 35 00 6A 5A 00 00 00 00
   5.350000 1  123             Rx   d 8 6B 00 36 00 AA 55 05 00
   5.400000 1  123             Rx   d 8 6C 00 36 00 AA 55 06 00
   5.401000 CANFD   1 Rx 2A0 VehicleDynamics 1 0 F 64 18 15 0E 05 63 2F F0 01 0C 05 74 03 D1 12 13 00 00 00 00 00 00 00 00 00 00 00 00 00 00 00 00 00 00 00 00 00 00 00 00 00 C1 02 00 00 00 00 00 00 00 00 00 00 00 00 00 00 00 00 00 00 00 00 00 A5
   5.402000 CANFD   1 Rx 182 CompactStatus 1 0 8 8 36 00 6C 5A 00 00 00 00
   5.450000 1  123             Rx   d 8 6D 00 37 00 AA 55 07 00
   5.500000 1  123             Rx   d 8 6E 00 37 00 AA 55 08 00
   5.501000 CANFD   1 Rx 2A0 VehicleDynamics 1 0 F 64 7C 15 0E 05 F8 2F F4 01 14 05 74 03 D1 12 13 00 00 00 00 00 00 00 00 00 00 00 00 00 00 00 00 00 00 00 00 00 00 00 00 00 C1 02 00 00 00 00 00 00 00 00 00 00 00 00 00 00 00 00 00 00 00 00 00 A5
   5.502000 CANFD   1 Rx 182 CompactStatus 1 0 8 8 37 00 6E 5A 00 00 00 00
   5.503000 1  300             Rx   d 8 00 00 00 00 7C 15 7C 15
   5.505000 1  310             Tx   d 8 00 20 03 3F 00 00 00 00
   5.550000 1  123             Rx   d 8 6F 00 38 00 AA 55 09 00
   5.600000 1  123             Rx   d 8 70 00 38 00 AA 55 0A 00
   5.601000 CANFD   1 Rx 2A0 VehicleDynamics 1 0 F 64 E0 15 0E 05 8D 30 F8 01 1C 05 74 03 D1 12 13 00 00 00 00 00 00 00 00 00 00 00 00 00 00 00 00 00 00 00 00 00 00 00 00 00 C2 02 00 00 00 00 00 00 00 00 00 00 00 00 00 00 00 00 00 00 00 00 00 A5
   5.602000 CANFD   1 Rx 182 CompactStatus 1 0 8 8 38 00 70 5A 00 00 00 00
   5.604000 CANFD 2 Rx 184 Fd16Telemetry 1 0 A 16 E0 15 00 00 43 FC C2 03 20 03 AE 34 66 09 C6 00
   5.650000 1  123             Rx   d 8 71 00 39 00 AA 55 0B 00
   5.700000 1  123             Rx   d 8 72 00 39 00 AA 55 0C 00
   5.701000 CANFD   1 Rx 2A0 VehicleDynamics 1 0 F 64 44 16 0F 05 22 31 FC 01 25 05 74 03 D1 12 13 00 00 00 00 00 00 00 00 00 00 00 00 00 00 00 00 00 00 00 00 00 00 00 00 00 C3 02 00 00 00 00 00 00 00 00 00 00 00 00 00 00 00 00 00 00 00 00 00 A5
   5.702000 CANFD   1 Rx 182 CompactStatus 1 0 8 8 39 00 72 5A 00 00 00 00
   5.750000 1  123             Rx   d 8 73 00 3A 00 AA 55 0D 00
   5.753000 1  300             Rx   d 8 00 00 00 00 76 16 76 16
   5.800000 1  123             Rx   d 8 74 00 3A 00 AA 55 0E 00
   5.801000 CANFD   1 Rx 2A0 VehicleDynamics 1 0 F 64 A8 16 0F 05 B6 31 00 02 2D 05 74 03 D1 12 13 00 00 00 00 00 00 00 00 00 00 00 00 00 00 00 00 00 00 00 00 00 00 00 00 00 C4 02 00 00 00 00 00 00 00 00 00 00 00 00 00 00 00 00 00 00 00 00 00 A5
   5.802000 CANFD   1 Rx 182 CompactStatus 1 0 8 8 3A 00 74 5A 00 00 00 00
   5.850000 1  123             Rx   d 8 75 00 3B 00 AA 55 0F 00
   5.900000 1  123             Rx   d 8 76 00 3B 00 AA 55 10 00
   5.901000 CANFD   1 Rx 2A0 VehicleDynamics 1 0 F 64 0C 17 0F 05 4B 32 04 02 36 05 74 03 D1 12 13 00 00 00 00 00 00 00 00 00 00 00 00 00 00 00 00 00 00 00 00 00 00 00 00 00 C5 02 00 00 00 00 00 00 00 00 00 00 00 00 00 00 00 00 00 00 00 00 00 A5
   5.902000 CANFD   1 Rx 182 CompactStatus 1 0 8 8 3B 00 76 5A 00 00 00 00
   5.950000 1  123             Rx   d 8 77 00 3C 00 AA 55 00 00
   6.000000 1  123             Rx   d 8 78 00 3C 00 AA 55 01 00
   6.001000 CANFD   1 Rx 2A0 VehicleDynamics 1 0 F 64 70 17 0F 05 E0 32 08 02 3E 05 74 03 D1 12 13 00 00 00 00 00 00 00 00 00 00 00 00 00 00 00 00 00 00 00 00 00 00 00 00 00 C6 02 00 00 00 00 00 00 00 00 00 00 00 00 00 00 00 00 00 00 00 00 00 A5
   6.002000 CANFD   1 Rx 182 CompactStatus 1 0 8 8 3C 00 78 5A 00 00 00 00
   6.003000 1  300             Rx   d 8 00 00 00 00 70 17 70 17
   6.004000 CANFD 2 Rx 184 Fd16Telemetry 1 0 A 16 70 17 00 00 A6 FB 1B 03 46 03 70 38 66 09 A3 00
   6.005000 1  310             Tx   d 8 00 20 03 3F 00 00 00 00
   6.006000 2  18FF50E5x       Rx   d 8 3F F5 03 7B 05 05 05 06
   6.006500 2  5A0x            Rx   d 8 4E 03 FE FD 8C 02 C0 01
   6.007000 2  400             Rx   r 0
   6.050000 1  123             Rx   d 8 79 00 3D 00 AA 55 02 00
   6.100000 1  123             Rx   d 8 7A 00 3D 00 AA 55 03 00
   6.101000 CANFD   1 Rx 2A0 VehicleDynamics 1 0 F 64 D4 17 0F 05 75 33 0C 02 46 05 74 03 D1 12 13 00 00 00 00 00 00 00 00 00 00 00 00 00 00 00 00 00 00 00 00 00 00 00 00 00 C7 02 00 00 00 00 00 00 00 00 00 00 00 00 00 00 00 00 00 00 00 00 00 A5
   6.102000 CANFD   1 Rx 182 CompactStatus 1 0 8 8 3D 00 7A 5A 00 00 00 00
   6.150000 1  123             Rx   d 8 7B 00 3E 00 AA 55 04 00
   6.200000 1  123             Rx   d 8 7C 00 3E 00 AA 55 05 00
   6.201000 CANFD   1 Rx 2A0 VehicleDynamics 1 0 F 64 38 18 0F 05 0A 34 10 02 4F 05 74 03 D1 12 13 00 00 00 00 00 00 00 00 00 00 00 00 00 00 00 00 00 00 00 00 00 00 00 00 00 C8 02 00 00 00 00 00 00 00 00 00 00 00 00 00 00 00 00 00 00 00 00 00 A5
   6.202000 CANFD   1 Rx 182 CompactStatus 1 0 8 8 3E 00 7C 5A 00 00 00 00
   6.250000 1  123             Rx   d 8 7D 00 3F 00 AA 55 06 00
   6.253000 1  300             Rx   d 8 00 00 00 00 6A 18 6A 18
   6.300000 1  123             Rx   d 8 7E 00 3F 00 AA 55 07 00
   6.301000 CANFD   1 Rx 2A0 VehicleDynamics 1 0 F 64 9C 18 0F 05 9E 34 14 02 57 05 75 03 D1 12 13 00 00 00 00 00 00 00 00 00 00 00 00 00 00 00 00 00 00 00 00 00 00 00 00 00 C9 02 00 00 00 00 00 00 00 00 00 00 00 00 00 00 00 00 00 00 00 00 00 A5
   6.302000 CANFD   1 Rx 182 CompactStatus 1 0 8 8 3F 00 7E 5A 00 00 00 00
   6.350000 1  123             Rx   d 8 7F 00 40 00 AA 55 08 00
   6.400000 1  123             Rx   d 8 80 00 40 00 AA 55 09 00
   6.401000 CANFD   1 Rx 2A0 VehicleDynamics 1 0 F 64 00 19 0F 05 33 35 18 02 60 05 75 03 D1 12 13 00 00 00 00 00 00 00 00 00 00 00 00 00 00 00 00 00 00 00 00 00 00 00 00 00 CA 02 00 00 00 00 00 00 00 00 00 00 00 00 00 00 00 00 00 00 00 00 00 A5
   6.402000 CANFD   1 Rx 182 CompactStatus 1 0 8 8 40 00 80 5A 00 00 00 00
   6.404000 CANFD 2 Rx 184 Fd16Telemetry 1 0 A 16 00 19 00 00 27 FB 5A 02 68 03 33 3C 66 09 7A 00
   6.450000 1  123             Rx   d 8 81 00 41 00 AA 55 0A 00
   6.500000 1  123             Rx   d 8 82 00 41 00 AA 55 0B 00
   6.501000 CANFD   1 Rx 2A0 VehicleDynamics 1 0 F 64 64 19 0F 05 C8 35 1C 02 68 05 75 03 D1 12 13 00 00 00 00 00 00 00 00 00 00 00 00 00 00 00 00 00 00 00 00 00 00 00 00 00 CA 02 00 00 00 00 00 00 00 00 00 00 00 00 00 00 00 00 00 00 00 00 00 A5
   6.502000 CANFD   1 Rx 182 CompactStatus 1 0 8 8 41 00 82 5A 00 00 00 00
   6.503000 1  300             Rx   d 8 00 00 00 00 64 19 64 19
   6.505000 1  310             Tx   d 8 00 20 03 3F 00 00 00 00
   6.550000 1  123             Rx   d 8 83 00 42 00 AA 55 0C 00
   6.600000 1  123             Rx   d 8 84 00 42 00 AA 55 0D 00
   6.601000 CANFD   1 Rx 2A0 VehicleDynamics 1 0 F 64 C8 19 0F 05 5D 36 20 02 70 05 75 03 D1 12 13 00 00 00 00 00 00 00 00 00 00 00 00 00 00 00 00 00 00 00 00 00 00 00 00 00 CB 02 00 00 00 00 00 00 00 00 00 00 00 00 00 00 00 00 00 00 00 00 00 A5
   6.602000 CANFD   1 Rx 182 CompactStatus 1 0 8 8 42 00 84 5A 00 00 00 00
   6.650000 1  123             Rx   d 8 85 00 43 00 AA 55 0E 00
   6.700000 1  123             Rx   d 8 86 00 43 00 AA 55 0F 00
   6.701000 CANFD   1 Rx 2A0 VehicleDynamics 1 0 F 64 2C 1A 0F 05 F2 36 24 02 79 05 75 03 D1 12 13 00 00 00 00 00 00 00 00 00 00 00 00 00 00 00 00 00 00 00 00 00 00 00 00 00 CC 02 00 00 00 00 00 00 00 00 00 00 00 00 00 00 00 00 00 00 00 00 00 A5
   6.702000 CANFD   1 Rx 182 CompactStatus 1 0 8 8 43 00 86 5A 00 00 00 00
   6.750000 1  123             Rx   d 8 87 00 44 00 AA 55 10 00
   6.753000 1  300             Rx   d 8 00 00 00 00 5E 1A 5E 1A
   6.800000 1  123             Rx   d 8 88 00 44 00 AA 55 00 00
   6.801000 CANFD   1 Rx 2A0 VehicleDynamics 1 0 F 64 90 1A 0F 05 86 37 28 02 81 05 75 03 D1 12 13 00 00 00 00 00 00 00 00 00 00 00 00 00 00 00 00 00 00 00 00 00 00 00 00 00 CD 02 00 00 00 00 00 00 00 00 00 00 00 00 00 00 00 00 00 00 00 00 00 A5
   6.802000 CANFD   1 Rx 182 CompactStatus 1 0 8 8 44 00 88 5A 00 00 00 00
   6.804000 CANFD 2 Rx 184 Fd16Telemetry 1 0 A 16 90 1A 00 00 C9 FA 86 01 86 03 F5 3F 66 09 4E 00
   6.850000 1  123             Rx   d 8 89 00 45 00 AA 55 01 00
   6.900000 1  123             Rx   d 8 8A 00 45 00 AA 55 02 00
   6.901000 CANFD   1 Rx 2A0 VehicleDynamics 1 0 F 64 F4 1A 0F 05 1B 38 2C 02 8A 05 75 03 D1 12 13 00 00 00 00 00 00 00 00 00 00 00 00 00 00 00 00 00 00 00 00 00 00 00 00 00 CE 02 00 00 00 00 00 00 00 00 00 00 00 00 00 00 00 00 00 00 00 00 00 A5
   6.902000 CANFD   1 Rx 182 CompactStatus 1 0 8 8 45 00 8A 5A 00 00 00 00
   6.950000 1  123             Rx   d 8 8B 00 46 00 AA 55 03 00
   7.000000 1  123             Rx   d 8 8C 00 46 00 AA 55 04 00
   7.001000 CANFD   1 Rx 2A0 VehicleDynamics 1 0 F 64 58 1B 0E 05 B0 38 30 02 92 05 75 03 D1 12 13 00 00 00 00 00 00 00 00 00 00 00 00 00 00 00 00 00 00 00 00 00 00 00 00 00 CF 02 00 00 00 00 00 00 00 00 00 00 00 00 00 00 00 00 00 00 00 00 00 A5
   7.002000 CANFD   1 Rx 182 CompactStatus 1 0 8 8 46 00 8C 5A 00 00 00 00
   7.003000 1  300             Rx   d 8 00 00 00 00 58 1B 58 1B
   7.005000 1  310             Tx   d 8 00 20 03 3F 00 00 00 00
   7.006000 2  18FF50E5x       Rx   d 8 3F F6 03 7D 05 11 05 07
   7.006500 2  5A0x            Rx   d 8 3B 03 04 FE B2 02 C0 01
   7.050000 1  123             Rx   d 8 8D 00 47 00 AA 55 05 00
   7.100000 1  123             Rx   d 8 8E 00 47 00 AA 55 06 00
   7.101000 CANFD   1 Rx 2A0 VehicleDynamics 1 0 F 64 BC 1B 0E 05 45 39 34 02 9A 05 75 03 D1 12 13 00 00 00 00 00 00 00 00 00 00 00 00 00 00 00 00 00 00 00 00 00 00 00 00 00 D0 02 00 00 00 00 00 00 00 00 00 00 00 00 00 00 00 00 00 00 00 00 00 A5
   7.102000 CANFD   1 Rx 182 CompactStatus 1 0 8 8 47 00 8E 5A 00 00 00 00
   7.150000 1  123             Rx   d 8 8F 00 48 00 AA 55 07 00
   7.200000 1  123             Rx   d 8 90 00 48 00 AA 55 08 00
   7.201000 CANFD   1 Rx 2A0 VehicleDynamics 1 0 F 64 20 1C 0E 05 DA 39 38 02 A3 05 75 03 D1 12 13 00 00 00 00 00 00 00 00 00 00 00 00 00 00 00 00 00 00 00 00 00 00 00 00 00 D0 02 00 00 00 00 00 00 00 00 00 00 00 00 00 00 00 00 00 00 00 00 00 A5
   7.202000 CANFD   1 Rx 182 CompactStatus 1 0 8 8 48 00 90 5A 00 00 00 00
   7.204000 CANFD 2 Rx 184 Fd16Telemetry 1 0 A 16 20 1C 00 00 90 FA A2 00 A1 03 B8 43 66 09 20 00
   7.250000 1  123             Rx   d 8 91 00 49 00 AA 55 09 00
   7.253000 1  300             Rx   d 8 00 00 00 00 52 1C 52 1C
   7.300000 1  123             Rx   d 8 92 00 49 00 AA 55 0A 00
   7.301000 CANFD   1 Rx 2A0 VehicleDynamics 1 0 F 64 84 1C 0E 05 6E 3A 3C 02 AB 05 75 03 D1 12 13 00 00 00 00 00 00 00 00 00 00 00 00 00 00 00 00 00 00 00 00 00 00 00 00 00 D1 02 00 00 00 00 00 00 00 00 00 00 00 00 00 00 00 00 00 00 00 00 00 A5
   7.302000 CANFD   1 Rx 182 CompactStatus 1 0 8 8 49 00 92 5A 00 00 00 00
   7.350000 1  123             Rx   d 8 93 00 4A 00 AA 55 0B 00
   7.400000 1  123             Rx   d 8 94 00 4A 00 AA 55 0C 00
   7.401000 CANFD   1 Rx 2A0 VehicleDynamics 1 0 F 64 E8 1C 0E 05 03 3B 40 02 B4 05 75 03 D2 12 13 00 00 00 00 00 00 00 00 00 00 00 00 00 00 00 00 00 00 00 00 00 00 00 00 00 D2 02 00 00 00 00 00 00 00 00 00 00 00 00 00 00 00 00 00 00 00 00 00 A5
   7.402000 CANFD   1 Rx 182 CompactStatus 1 0 8 8 4A 00 94 5A 00 00 00 00
   7.450000 1  123             Rx   d 8 95 00 4B 00 AA 55 0D 00
   7.500000 1  123             Rx   d 8 96 00 4B 00 AA 55 0E 00
   7.501000 CANFD   1 Rx 2A0 VehicleDynamics 1 0 F 64 4C 1D 0D 05 98 3B 44 02 BC 05 75 03 D2 12 13 00 00 00 00 00 00 00 00 00 00 00 00 00 00 00 00 00 00 00 00 00 00 00 00 00 D3 02 00 00 00 00 00 00 00 00 00 00 00 00 00 00 00 00 00 00 00 00 00 A5
   7.502000 CANFD   1 Rx 182 CompactStatus 1 0 8 8 4B 00 96 5A 00 00 00 00
   7.503000 1  300             Rx   d 8 00 00 00 00 4C 1D 4C 1D
   7.505000 1  310             Tx   d 8 00 20 03 3F 00 00 00 00
   7.550000 1  123             Rx   d 8 97 00 4C 00 AA 55 0F 00
   7.600000 1  123             Rx   d 8 98 00 4C 00 AA 55 10 00
   7.601000 CANFD   1 Rx 2A0 VehicleDynamics 1 0 F 64 B0 1D 0D 05 2D 3C 48 02 C4 05 75 03 D2 12 13 00 00 00 00 00 00 00 00 00 00 00 00 00 00 00 00 00 00 00 00 00 00 00 00 00 D4 02 00 00 00 00 00 00 00 00 00 00 00 00 00 00 00 00 00 00 00 00 00 A5
   7.602000 CANFD   1 Rx 182 CompactStatus 1 0 8 8 4C 00 98 5A 00 00 00 00
   7.604000 CANFD 2 Rx 184 Fd16Telemetry 1 0 A 16 B0 1D 00 00 7D FA B6 FF B7 03 7A 47 66 09 F1 FF
   7.650000 1  123             Rx   d 8 99 00 4D 00 AA 55 00 00
   7.700000 1  123             Rx   d 8 9A 00 4D 00 AA 55 01 00
   7.701000 CANFD   1 Rx 2A0 VehicleDynamics 1 0 F 64 14 1E 0D 05 C2 3C 4C 02 CD 05 75 03 D2 12 13 00 00 00 00 00 00 00 00 00 00 00 00 00 00 00 00 00 00 00 00 00 00 00 00 00 D5 02 00 00 00 00 00 00 00 00 00 00 00 00 00 00 00 00 00 00 00 00 00 A5
   7.702000 CANFD   1 Rx 182 CompactStatus 1 0 8 8 4D 00 9A 5A 00 00 00 00
   7.750000 1  123             Rx   d 8 9B 00 4E 00 AA 55 02 00
   7.753000 1  300             Rx   d 8 00 00 00 00 46 1E 46 1E
   7.800000 1  123             Rx   d 8 9C 00 4E 00 AA 55 03 00
   7.801000 CANFD   1 Rx 2A0 VehicleDynamics 1 0 F 64 78 1E 0D 05 56 3D 50 02 D5 05 75 03 D2 12 13 00 00 00 00 00 00 00 00 00 00 00 00 00 00 00 00 00 00 00 00 00 00 00 00 00 D5 02 00 00 00 00 00 00 00 00 00 00 00 00 00 00 00 00 00 00 00 00 00 A5
   7.802000 CANFD   1 Rx 182 CompactStatus 1 0 8 8 4E 00 9C 5A 00 00 00 00
   7.850000 1  123             Rx   d 8 9D 00 4F 00 AA 55 04 00
   7.900000 1  123             Rx   d 8 9E 00 4F 00 AA 55 05 00
   7.901000 CANFD   1 Rx 2A0 VehicleDynamics 1 0 F 64 DC 1E 0C 05 EB 3D 54 02 DE 05 75 03 D2 12 13 00 00 00 00 00 00 00 00 00 00 00 00 00 00 00 00 00 00 00 00 00 00 00 00 00 D6 02 00 00 00 00 00 00 00 00 00 00 00 00 00 00 00 00 00 00 00 00 00 A5
   7.902000 CANFD   1 Rx 182 CompactStatus 1 0 8 8 4F 00 9E 5A 00 00 00 00
   7.950000 1  123             Rx   d 8 9F 00 50 00 AA 55 06 00
   8.000000 1  123             Rx   d 8 A0 00 50 00 AA 55 07 00
   8.001000 CANFD   1 Rx 2A0 VehicleDynamics 1 0 F 64 40 1F 0C 05 F7 38 9D 00 44 02 76 03 D2 12 13 00 00 00 00 00 00 00 00 00 00 00 00 00 00 00 00 00 00 00 00 00 00 00 00 00 D7 02 00 00 00 00 00 00 00 00 00 00 00 00 00 00 00 00 00 00 00 00 00 A5
   8.002000 CANFD   1 Rx 182 CompactStatus 1 0 8 8 50 00 A0 5A 00 00 00 00
   8.003000 1  300             Rx   d 8 00 00 00 00 40 1F 40 1F
   8.004000 CANFD 2 Rx 184 Fd16Telemetry 1 0 A 16 40 1F 00 00 92 FA C9 FE C9 03 3D 4B 66 09 C3 FF
   8.005000 1  310             Tx   d 8 00 20 03 40 00 00 00 00
   8.006000 2  18FF50E5x       Rx   d 8 3F F7 03 7D 05 1C 05 08
   8.006500 2  5A0x            Rx   d 8 26 03 0A FE BC 02 BF 01
   8.007000 2  400             Rx   r 0
   8.050000 1  123             Rx   d 8 A1 00 51 00 AA 55 08 00
   8.100000 1  123             Rx   d 8 A2 00 51 00 AA 55 09 00
   8.101000 CANFD   1 Rx 2A0 VehicleDynamics 1 0 F 64 A9 1F 0B 05 82 39 9C 00 42 02 76 03 D2 12 13 00 00 00 00 00 00 00 00 00 00 00 00 00 00 00 00 00 00 00 00 00 00 00 00 00 D8 02 00 00 00 00 00 00 00 00 00 00 00 00 00 00 00 00 00 00 00 00 00 A5
   8.102000 CANFD   1 Rx 182 CompactStatus 1 0 8 8 51 00 A2 5A 00 00 00 00
   8.150000 1  123             Rx   d 8 A3 00 52 00 AA 55 0A 00
   8.200000 1  123             Rx   d 8 A4 00 52 00 AA 55 0B 00
   8.201000 CANFD   1 Rx 2A0 VehicleDynamics 1 0 F 64 10 20 0B 05 0C 3A 9B 00 40 02 76 03 D2 12 13 00 00 00 00 00 00 00 00 00 00 00 00 00 00 00 00 00 00 00 00 00 00 00 00 00 D9 02 00 00 00 00 00 00 00 00 00 00 00 00 00 00 00 00 00 00 00 00 00 A5
   8.202000 CANFD   1 Rx 182 CompactStatus 1 0 8 8 52 00 A4 5A 00 00 00 00
   8.250000 1  123             Rx   d 8 A5 00 53 00 AA 55 0C 00
   8.253000 1  300             Rx   d 8 00 00 00 00 43 20 43 20
   8.300000 1  123             Rx   d 8 A6 00 53 00 AA 55 0D 00
   8.301000 CANFD   1 Rx 2A0 VehicleDynamics 1 0 F 64 75 20 0B 05 93 3A 9B 00 3F 02 76 03 D2 12 13 00 00 00 00 00 00 00 00 00 00 00 00 00 00 00 00 00 00 00 00 00 00 00 00 00 D9 02 00 00 00 00 00 00 00 00 00 00 00 00 00 00 00 00 00 00 00 00 00 A5
   8.302000 CANFD   1 Rx 182 CompactStatus 1 0 8 8 53 00 A6 5A 00 00 00 00
   8.350000 1  123             Rx   d 8 A7 00 54 00 AA 55 0E 00
   8.400000 1  123             Rx   d 8 A8 00 54 00 AA 55 0F 00
   8.401000 CANFD   1 Rx 2A0 VehicleDynamics 1 0 F 64 D7 20 0A 05 15 3B 9A 00 3D 02 76 03 D2 12 13 00 00 00 00 00 00 00 00 00 00 00 00 00 00 00 00 00 00 00 00 00 00 00 00 00 DA 02 00 00 00 00 00 00 00 00 00 00 00 00 00 00 00 00 00 00 00 00 00 A5
   8.402000 CANFD   1 Rx 182 CompactStatus 1 0 8 8 54 00 A8 5A 00 00 00 00
   8.404000 CANFD 2 Rx 184 Fd16Telemetry 1 0 A 16 D7 20 00 00 CF FA E1 FD D8 03 00 4F 66 09 96 FF
   8.450000 1  123             Rx   d 8 A9 00 55 00 AA 55 10 00
   8.500000 1  123             Rx   d 8 AA 00 55 00 AA 55 00 00
   8.501000 CANFD   1 Rx 2A0 VehicleDynamics 1 0 F 64 34 21 0A 05 92 3B 99 00 3C 02 76 03 D2 12 13 00 00 00 00 00 00 00 00 00 00 00 00 00 00 00 00 00 00 00 00 00 00 00 00 00 DB 02 00 00 00 00 00 00 00 00 00 00 00 00 00 00 00 00 00 00 00 00 00 A5
   8.502000 CANFD   1 Rx 182 CompactStatus 1 0 8 8 55 00 AA 5A 00 00 00 00
   8.503000 1  300             Rx   d 8 00 00 00 00 34 21 34 21
   8.505000 1  310             Tx   d 8 00 20 03 40 00 00 00 00
   8.550000 1  123             Rx   d 8 AB 00 55 00 AA 55 01 00
   8.600000 1  123             Rx   d 8 AC 00 56 00 AA 55 02 00
   8.601000 CANFD   1 Rx 2A0 VehicleDynamics 1 0 F 64 8C 21 09 05 07 3C 99 00 3A 02 76 03 D2 12 13 00 00 00 00 00 00 00 00 00 00 00 00 00 00 00 00 00 00 00 00 00 00 00 00 00 DC 02 00 00 00 00 00 00 00 00 00 00 00 00 00 00 00 00 00 00 00 00 00 A5
   8.602000 CANFD   1 Rx 182 CompactStatus 1 0 8 8 56 00 AC 5A 00 00 00 00
   8.650000 1  123             Rx   d 8 AD 00 56 00 AA 55 03 00
   8.700000 1  123             Rx   d 8 AE 00 57 00 AA 55 04 00
   8.701000 CANFD   1 Rx 2A0 VehicleDynamics 1 0 F 64 DD 21 09 05 74 3C 98 00 39 02 76 03 D2 12 13 00 00 00 00 00 00 00 00 00 00 00 00 00 00 00 00 00 00 00 00 00 00 00 00 00 DC 02 00 00 00 00 00 00 00 00 00 00 00 00 00 00 00 00 00 00 00 00 00 A5
   8.702000 CANFD   1 Rx 182 CompactStatus 1 0 8 8 57 00 AE 5A 00 00 00 00
   8.750000 1  123             Rx   d 8 AF 00 57 00 AA 55 05 00
   8.753000 1  300             Rx   d 8 00 00 00 00 03 22 03 22
   8.800000 1  123             Rx   d 8 B0 00 57 00 AA 55 06 00
   8.801000 CANFD   1 Rx 2A0 VehicleDynamics 1 0 F 64 27 22 08 05 D7 3C 97 00 38 02 76 03 D2 12 13 00 00 00 00 00 00 00 00 00 00 00 00 00 00 00 00 00 00 00 00 00 00 00 00 00 DD 02 00 00 00 00 00 00 00 00 00 00 00 00 00 00 00 00 00 00 00 00 00 A5
   8.802000 CANFD   1 Rx 182 CompactStatus 1 0 8 8 57 00 B0 5A 00 00 00 00
   8.804000 CANFD 2 Rx 184 Fd16Telemetry 1 0 A 16 27 22 00 00 33 FB 04 FD E2 03 C2 52 66 09 6C FF
   8.850000 1  123             Rx   d 8 B1 00 58 00 AA 55 07 00
   8.900000 1  123             Rx   d 8 B2 00 58 00 AA 55 08 00
   8.901000 CANFD   1 Rx 2A0 VehicleDynamics 1 0 F 64 69 22 08 05 30 3D 97 00 37 02 76 03 D2 12 13 00 00 00 00 00 00 00 00 00 00 00 00 00 00 00 00 00 00 00 00 00 00 00 00 00 DE 02 00 00 00 00 00 00 00 00 00 00 00 00 00 00 00 00 00 00 00 00 00 A5
   8.902000 CANFD   1 Rx 182 CompactStatus 1 0 8 8 58 00 B2 5A 00 00 00 00
   8.950000 1  123             Rx   d 8 B3 00 58 00 AA 55 09 00
   9.000000 1  123             Rx   d 8 B4 00 59 00 AA 55 0A 00
   9.001000 CANFD   1 Rx 2A0 VehicleDynamics 1 0 F 64 A2 22 07 05 7C 3D 97 00 36 02 76 03 D2 12 13 00 00 00 00 00 00 00 00 00 00 00 00 00 00 00 00 00 00 00 00 00 00 00 00 00 DF 02 00 00 00 00 00 00 00 00 00 00 00 00 00 00 00 00 00 00 00 00 00 A5
   9.002000 CANFD   1 Rx 182 CompactStatus 1 0 8 8 59 00 B4 5A 00 00 00 00
   9.003000 1  300             Rx   d 8 00 00 00 00 A2 22 A2 22
   9.005000 1  310             Tx   d 8 00 20 03 40 00 00 00 00
   9.006000 2  18FF50E5x       Rx   d 8 3F F7 03 7C 05 25 05 09
   9.006500 2  5A0x            Rx   d 8 0F 03 10 FE AA 02 BC 01
   9.050000 1  123             Rx   d 8 B5 00 59 00 AA 55 0B 00
   9.100000 1  123             Rx   d 8 B6 00 59 00 AA 55 0C 00
   9.101000 CANFD   1 Rx 2A0 VehicleDynamics 1 0 F 64 D2 22 07 05 BC 3D 96 00 36 02 76 03 D2 12 13 00 00 00 00 00 00 00 00 00 00 00 00 00 00 00 00 00 00 00 00 00 00 00 00 00 DF 02 00 00 00 00 00 00 00 00 00 00 00 00 00 00 00 00 00 00 00 00 00 A5
   9.102000 CANFD   1 Rx 182 CompactStatus 1 0 8 8 59 00 B6 5A 00 00 00 00
   9.150000 1  123             Rx   d 8 B7 00 59 00 AA 55 0D 00
   9.200000 1  123             Rx   d 8 B8 00 5A 00 AA 55 0E 00
   9.201000 CANFD   1 Rx 2A0 VehicleDynamics 1 0 F 64 F7 22 06 05 EE 3D 96 00 35 02 76 03 D2 12 13 00 00 00 00 00 00 00 00 00 00 00 00 00 00 00 00 00 00 00 00 00 00 00 00 00 E0 02 00 00 00 00 00 00 00 00 00 00 00 00 00 00 00 00 00 00 00 00 00 A5
   9.202000 CANFD   1 Rx 182 CompactStatus 1 0 8 8 5A 00 B8 5A 00 00 00 00
   9.204000 CANFD 2 Rx 184 Fd16Telemetry 1 0 A 16 F7 22 00 00 BC FB 3A FC E8 03 85 56 66 09 47 FF
   9.250000 1  123             Rx   d 8 B9 00 5A 00 AA 55 0F 00
   9.253000 1  300             Rx   d 8 00 00 00 00 06 23 06 23
   9.300000 1  123             Rx   d 8 BA 00 5A 00 AA 55 10 00
   9.301000 CANFD   1 Rx 2A0 VehicleDynamics 1 0 F 64 12 23 06 05 12 3E 96 00 35 02 76 03 D2 12 13 00 00 00 00 00 00 00 00 00 00 00 00 00 00 00 00 00 00 00 00 00 00 00 00 00 E1 02 00 00 00 00 00 00 00 00 00 00 00 00 00 00 00 00 00 00 00 00 00 A5
   9.302000 CANFD   1 Rx 182 CompactStatus 1 0 8 8 5A 00 BA 5A 00 00 00 00
   9.350000 1  123             Rx   d 8 BB 00 5A 00 AA 55 00 00
   9.400000 1  123             Rx   d 8 BC 00 5A 00 AA 55 01 00
   9.401000 CANFD   1 Rx 2A0 VehicleDynamics 1 0 F 64 23 23 05 05 29 3E 96 00 35 02 76 03 D2 12 13 00 00 00 00 00 00 00 00 00 00 00 00 00 00 00 00 00 00 00 00 00 00 00 00 00 E2 02 00 00 00 00 00 00 00 00 00 00 00 00 00 00 00 00 00 00 00 00 00 A5
   9.402000 CANFD   1 Rx 182 CompactStatus 1 0 8 8 5A 00 BC 5A 00 00 00 00
   9.450000 1  123             Rx   d 8 BD 00 5A 00 AA 55 02 00
   9.500000 1  123             Rx   d 8 BE 00 5A 00 AA 55 03 00
   9.501000 CANFD   1 Rx 2A0 VehicleDynamics 1 0 F 64 28 23 04 05 30 3E 96 00 35 02 76 03 D2 12 13 00 00 00 00 00 00 00 00 00 00 00 00 00 00 00 00 00 00 00 00 00 00 00 00 00 E2 02 00 00 00 00 00 00 00 00 00 00 00 00 00 00 00 00 00 00 00 00 00 A5
   9.502000 CANFD   1 Rx 182 CompactStatus 1 0 8 8 5A 00 BE 5A 00 00 00 00
   9.503000 1  300             Rx   d 8 00 00 00 00 28 23 28 23
   9.505000 1  310             Tx   d 8 00 20 03 40 00 00 00 00
   9.550000 1  123             Rx   d 8 BF 00 5A 00 AA 55 04 00
   9.600000 1  123             Rx   d 8 C0 00 5A 00 AA 55 05 00
   9.601000 CANFD   1 Rx 2A0 VehicleDynamics 1 0 F 64 23 23 04 05 29 3E 96 00 35 02 76 03 D2 12 13 00 00 00 00 00 00 00 00 00 00 00 00 00 00 00 00 00 00 00 00 00 00 00 00 00 E3 02 00 00 00 00 00 00 00 00 00 00 00 00 00 00 00 00 00 00 00 00 00 A5
   9.602000 CANFD   1 Rx 182 CompactStatus 1 0 8 8 5A 00 C0 5A 00 00 00 00
   9.604000 CANFD 2 Rx 184 Fd16Telemetry 1 0 A 16 23 23 00 00 66 FC 89 FB E9 03 47 5A 66 09 26 FF
   9.650000 1  123             Rx   d 8 C1 00 5A 00 AA 55 06 00
   9.700000 1  123             Rx   d 8 C2 00 5A 00 AA 55 07 00
   9.701000 CANFD   1 Rx 2A0 VehicleDynamics 1 0 F 64 12 23 03 05 13 3E 96 00 36 02 76 03 D2 12 13 00 00 00 00 00 00 00 00 00 00 00 00 00 00 00 00 00 00 00 00 00 00 00 00 00 E4 02 00 00 00 00 00 00 00 00 00 00 00 00 00 00 00 00 00 00 00 00 00 A5
   9.702000 CANFD   1 Rx 182 CompactStatus 1 0 8 8 5A 00 C2 5A 00 00 00 00
   9.750000 1  123             Rx   d 8 C3 00 5A 00 AA 55 08 00
   9.753000 1  300             Rx   d 8 00 00 00 00 06 23 06 23
   9.800000 1  123             Rx   d 8 C4 00 5A 00 AA 55 09 00
   9.801000 CANFD   1 Rx 2A0 VehicleDynamics 1 0 F 64 F7 22 02 05 EF 3D 97 00 36 02 76 03 D2 12 13 00 00 00 00 00 00 00 00 00 00 00 00 00 00 00 00 00 00 00 00 00 00 00 00 00 E5 02 00 00 00 00 00 00 00 00 00 00 00 00 00 00 00 00 00 00 00 00 00 A5
   9.802000 CANFD   1 Rx 182 CompactStatus 1 0 8 8 5A 00 C4 5A 00 00 00 00
   9.850000 1  123             Rx   d 8 C5 00 59 00 AA 55 0A 00
   9.900000 1  123             Rx   d 8 C6 00 59 00 AA 55 0B 00
   9.901000 CANFD   1 Rx 2A0 VehicleDynamics 1 0 F 64 D2 22 02 05 BD 3D 97 00 37 02 76 03 D2 12 13 00 00 00 00 00 00 00 00 00 00 00 00 00 00 00 00 00 00 00 00 00 00 00 00 00 E5 02 00 00 00 00 00 00 00 00 00 00 00 00 00 00 00 00 00 00 00 00 00 A5
   9.902000 CANFD   1 Rx 182 CompactStatus 1 0 8 8 59 00 C6 5A 00 00 00 00
   9.950000 1  123             Rx   d 8 C7 00 59 00 AA 55 0C 00
  10.000000 1  123             Rx   d 8 C8 00 59 00 AA 55 0D 00
  10.001000 CANFD   1 Rx 2A0 VehicleDynamics 1 0 F 64 A2 22 01 05 7E 3D 97 00 38 02 76 03 D2 12 13 00 00 00 00 00 00 00 00 00 00 00 00 00 00 00 00 00 00 00 00 00 00 00 00 00 E6 02 00 00 00 00 00 00 00 00 00 00 00 00 00 00 00 00 00 00 00 00 00 A5
  10.002000 CANFD   1 Rx 182 CompactStatus 1 0 8 8 59 00 C8 5A 00 00 00 00
  10.003000 1  300             Rx   d 8 00 00 00 00 A2 22 A2 22
   10.004000 CANFD 2 Rx 184 Fd16Telemetry 1 0 A 16 A2 22 00 00 2D FD F5 FA E7 03 0A 5E 66 09 0C FF
  10.005000 1  310             Tx   d 8 00 20 03 40 00 00 00 00
  10.006000 2  18FF50E5x       Rx   d 8 3F F8 03 7B 05 2E 05 0A
  10.006500 2  5A0x            Rx   d 8 F7 02 16 FE 7D 02 BA 01
  10.007000 2  400             Rx   r 0
  10.050000 1  123             Rx   d 8 C9 00 58 00 AA 55 0E 00
  10.100000 1  123             Rx   d 8 CA 00 58 00 AA 55 0F 00
  10.101000 CANFD   1 Rx 2A0 VehicleDynamics 1 0 F 64 69 22 00 05 32 3D 98 00 39 02 77 03 D2 12 13 00 00 00 00 00 00 00 00 00 00 00 00 00 00 00 00 00 00 00 00 00 00 00 00 00 E7 02 00 00 00 00 00 00 00 00 00 00 00 00 00 00 00 00 00 00 00 00 00 A5
  10.102000 CANFD   1 Rx 182 CompactStatus 1 0 8 8 58 00 CA 5A 00 00 00 00
  10.150000 1  123             Rx   d 8 CB 00 58 00 AA 55 10 00
  10.200000 1  123             Rx   d 8 CC 00 57 00 AA 55 00 00
  10.201000 CANFD   1 Rx 2A0 VehicleDynamics 1 0 F 64 27 22 00 05 DA 3C 98 00 3A 02 77 03 D2 12 13 00 00 00 00 00 00 00 00 00 00 00 00 00 00 00 00 00 00 00 00 00 00 00 00 00 E7 02 00 00 00 00 00 00 00 00 00 00 00 00 00 00 00 00 00 00 00 00 00 A5
  10.202000 CANFD   1 Rx 182 CompactStatus 1 0 8 8 57 00 CC 5A 00 00 00 00
  10.250000 1  123             Rx   d 8 CD 00 57 00 AA 55 01 00
  10.253000 1  300             Rx   d 8 00 00 00 00 03 22 03 22
  10.300000 1  123             Rx   d 8 CE 00 57 00 AA 55 02 00
  10.301000 CANFD   1 Rx 2A0 VehicleDynamics 1 0 F 64 DD 21 FF 04 77 3C 99 00 3B 02 77 03 D2 12 13 00 00 00 00 00 00 00 00 00 00 00 00 00 00 00 00 00 00 00 00 00 00 00 00 00 E8 02 00 00 00 00 00 00 00 00 00 00 00 00 00 00 00 00 00 00 00 00 00 A5
  10.302000 CANFD   1 Rx 182 CompactStatus 1 0 8 8 57 00 CE 5A 00 00 00 00
  10.350000 1  123             Rx   d 8 CF 00 56 00 AA 55 03 00
  10.400000 1  123             Rx   d 8 D0 00 56 00 AA 55 04 00
  10.401000 CANFD   1 Rx 2A0 VehicleDynamics 1 0 F 64 8C 21 FE 04 0B 3C 99 00 3C 02 77 03 D2 12 13 00 00 00 00 00 00 00 00 00 00 00 00 00 00 00 00 00 00 00 00 00 00 00 00 00 E9 02 00 00 00 00 00 00 00 00 00 00 00 00 00 00 00 00 00 00 00 00 00 A5
  10.402000 CANFD   1 Rx 182 CompactStatus 1 0 8 8 56 00 D0 5A 00 00 00 00
   10.404000 CANFD 2 Rx 184 Fd16Telemetry 1 0 A 16 8C 21 00 00 0B FE 83 FA E1 03 CC 61 66 09 F8 FE
  10.450000 1  123             Rx   d 8 D1 00 55 00 AA 55 05 00
  10.500000 1  123             Rx   d 8 D2 00 55 00 AA 55 06 00
  10.501000 CANFD   1 Rx 2A0 VehicleDynamics 1 0 F 64 34 21 FD 04 96 3B 9A 00 3E 02 77 03 D2 12 13 00 00 00 00 00 00 00 00 00 00 00 00 00 00 00 00 00 00 00 00 00 00 00 00 00 E9 02 00 00 00 00 00 00 00 00 00 00 00 00 00 00 00 00 00 00 00 00 00 A5
  10.502000 CANFD   1 Rx 182 CompactStatus 1 0 8 8 55 00 D2 5A 00 00 00 00
  10.503000 1  300             Rx   d 8 00 00 00 00 34 21 34 21
  10.505000 1  310             Tx   d 8 00 20 03 40 00 00 00 00
  10.550000 1  123             Rx   d 8 D3 00 55 00 AA 55 07 00
  10.600000 1  123             Rx   d 8 D4 00 54 00 AA 55 08 00
  10.601000 CANFD   1 Rx 2A0 VehicleDynamics 1 0 F 64 D7 20 FD 04 19 3B 9B 00 40 02 77 03 D2 12 13 00 00 00 00 00 00 00 00 00 00 00 00 00 00 00 00 00 00 00 00 00 00 00 00 00 EA 02 00 00 00 00 00 00 00 00 00 00 00 00 00 00 00 00 00 00 00 00 00 A5
  10.602000 CANFD   1 Rx 182 CompactStatus 1 0 8 8 54 00 D4 5A 00 00 00 00
  10.650000 1  123             Rx   d 8 D5 00 54 00 AA 55 09 00
  10.700000 1  123             Rx   d 8 D6 00 53 00 AA 55 0A 00
  10.701000 CANFD   1 Rx 2A0 VehicleDynamics 1 0 F 64 75 20 FC 04 97 3A 9C 00 41 02 77 03 D2 12 13 00 00 00 00 00 00 00 00 00 00 00 00 00 00 00 00 00 00 00 00 00 00 00 00 00 EB 02 00 00 00 00 00 00 00 00 00 00 00 00 00 00 00 00 00 00 00 00 00 A5
  10.702000 CANFD   1 Rx 182 CompactStatus 1 0 8 8 53 00 D6 5A 00 00 00 00
  10.750000 1  123             Rx   d 8 D7 00 53 00 AA 55 0B 00
  10.753000 1  300             Rx   d 8 00 00 00 00 43 20 43 20
  10.800000 1  123             Rx   d 8 D8 00 52 00 AA 55 0C 00
  10.801000 CANFD   1 Rx 2A0 VehicleDynamics 1 0 F 64 10 20 FB 04 11 3A 9D 00 43 02 77 03 D2 12 13 00 00 00 00 00 00 00 00 00 00 00 00 00 00 00 00 00 00 00 00 00 00 00 00 00 EB 02 00 00 00 00 00 00 00 00 00 00 00 00 00 00 00 00 00 00 00 00 00 A5
  10.802000 CANFD   1 Rx 182 CompactStatus 1 0 8 8 52 00 D8 5A 00 00 00 00
   10.804000 CANFD 2 Rx 184 Fd16Telemetry 1 0 A 16 10 20 00 00 FB FE 38 FA D6 03 8F 65 66 09 EC FE
  10.850000 1  123             Rx   d 8 D9 00 52 00 AA 55 0D 00
  10.900000 1  123             Rx   d 8 DA 00 51 00 AA 55 0E 00
  10.901000 CANFD   1 Rx 2A0 VehicleDynamics 1 0 F 64 A9 1F FA 04 87 39 9E 00 45 02 77 03 D2 12 13 00 00 00 00 00 00 00 00 00 00 00 00 00 00 00 00 00 00 00 00 00 00 00 00 00 EC 02 00 00 00 00 00 00 00 00 00 00 00 00 00 00 00 00 00 00 00 00 00 A5
  10.902000 CANFD   1 Rx 182 CompactStatus 1 0 8 8 51 00 DA 5A 00 00 00 00
  10.950000 1  123             Rx   d 8 DB 00 51 00 AA 55 0F 00
  11.000000 1  123             Rx   d 8 DC 00 50 00 AA 55 10 00
  11.001000 CANFD   1 Rx 2A0 VehicleDynamics 1 0 F 64 40 1F F9 04 FC 38 9F 00 48 02 77 03 D2 12 13 00 00 00 00 00 00 00 00 00 00 00 00 00 00 00 00 00 00 00 00 00 00 00 00 00 ED 02 00 00 00 00 00 00 00 00 00 00 00 00 00 00 00 00 00 00 00 00 00 A5
  11.002000 CANFD   1 Rx 182 CompactStatus 1 0 8 8 50 00 DC 5A 00 00 00 00
  11.003000 1  300             Rx   d 8 00 00 00 00 40 1F 40 1F
  11.005000 1  310             Tx   d 8 00 20 03 40 00 00 00 00
  11.006000 2  18FF50E5x       Rx   d 8 3F F9 03 78 05 36 05 0B
  11.006500 2  5A0x            Rx   d 8 E0 02 1C FE 36 02 B6 01
  11.050000 1  123             Rx   d 8 DD 00 4F 00 AA 55 00 00
  11.100000 1  123             Rx   d 8 DE 00 4F 00 AA 55 01 00
  11.101000 CANFD   1 Rx 2A0 VehicleDynamics 1 0 F 64 D7 1E F9 04 72 38 A0 00 4A 02 77 03 D2 12 13 00 00 00 00 00 00 00 00 00 00 00 00 00 00 00 00 00 00 00 00 00 00 00 00 00 ED 02 00 00 00 00 00 00 00 00 00 00 00 00 00 00 00 00 00 00 00 00 00 A5
  11.102000 CANFD   1 Rx 182 CompactStatus 1 0 8 8 4F 00 DE 5A 00 00 00 00
  11.150000 1  123             Rx   d 8 DF 00 4E 00 AA 55 02 00
  11.200000 1  123             Rx   d 8 E0 00 4E 00 AA 55 03 00
  11.201000 CANFD   1 Rx 2A0 VehicleDynamics 1 0 F 64 70 1E F8 04 E9 37 A1 00 4C 02 77 03 D2 12 13 00 00 00 00 00 00 00 00 00 00 00 00 00 00 00 00 00 00 00 00 00 00 00 00 00 EE 02 00 00 00 00 00 00 00 00 00 00 00 00 00 00 00 00 00 00 00 00 00 A5
  11.202000 CANFD   1 Rx 182 CompactStatus 1 0 8 8 4E 00 E0 5A 00 00 00 00
   11.204000 CANFD 2 Rx 184 Fd16Telemetry 1 0 A 16 70 1E 00 00 F6 FF 16 FA C8 03 52 69 66 09 E8 FE
  11.250000 1  123             Rx   d 8 E1 00 4D 00 AA 55 04 00
  11.253000 1  300             Rx   d 8 00 00 00 00 3D 1E 3D 1E
  11.300000 1  123             Rx   d 8 E2 00 4D 00 AA 55 05 00
  11.301000 CANFD   1 Rx 2A0 VehicleDynamics 1 0 F 64 0B 1E F7 04 63 37 A2 00 4F 02 77 03 D2 12 13 00 00 00 00 00 00 00 00 00 00 00 00 00 00 00 00 00 00 00 00 00 00 00 00 00 EE 02 00 00 00 00 00 00 00 00 00 00 00 00 00 00 00 00 00 00 00 00 00 A5
  11.302000 CANFD   1 Rx 182 CompactStatus 1 0 8 8 4D 00 E2 5A 00 00 00 00
  11.350000 1  123             Rx   d 8 E3 00 4C 00 AA 55 06 00
  11.400000 1  123             Rx   d 8 E4 00 4C 00 AA 55 07 00
  11.401000 CANFD   1 Rx 2A0 VehicleDynamics 1 0 F 64 A9 1D F6 04 E2 36 A3 00 51 02 77 03 D2 12 13 00 00 00 00 00 00 00 00 00 00 00 00 00 00 00 00 00 00 00 00 00 00 00 00 00 EF 02 00 00 00 00 00 00 00 00 00 00 00 00 00 00 00 00 00 00 00 00 00 A5
  11.402000 CANFD   1 Rx 182 CompactStatus 1 0 8 8 4C 00 E4 5A 00 00 00 00
  11.450000 1  123             Rx   d 8 E5 00 4B 00 AA 55 08 00
  11.500000 1  123             Rx   d 8 E6 00 4B 00 AA 55 09 00
  11.501000 CANFD   1 Rx 2A0 VehicleDynamics 1 0 F 64 4C 1D F5 04 67 36 A5 00 54 02 77 03 D2 12 13 00 00 00 00 00 00 00 00 00 00 00 00 00 00 00 00 00 00 00 00 00 00 00 00 00 F0 02 00 00 00 00 00 00 00 00 00 00 00 00 00 00 00 00 00 00 00 00 00 A5
  11.502000 CANFD   1 Rx 182 CompactStatus 1 0 8 8 4B 00 E6 5A 00 00 00 00
  11.503000 1  300             Rx   d 8 00 00 00 00 4C 1D 4C 1D
  11.505000 1  310             Tx   d 8 00 20 03 40 00 00 00 00
  11.550000 1  123             Rx   d 8 E7 00 4B 00 AA 55 0A 00
  11.600000 1  123             Rx   d 8 E8 00 4A 00 AA 55 0B 00
  11.601000 CANFD   1 Rx 2A0 VehicleDynamics 1 0 F 64 F4 1C F4 04 F4 35 A6 00 57 02 77 03 D2 12 13 00 00 00 00 00 00 00 00 00 00 00 00 00 00 00 00 00 00 00 00 00 00 00 00 00 F0 02 00 00 00 00 00 00 00 00 00 00 00 00 00 00 00 00 00 00 00 00 00 A5
  11.602000 CANFD   1 Rx 182 CompactStatus 1 0 8 8 4A 00 E8 5A 00 00 00 00
   11.604000 CANFD 2 Rx 184 Fd16Telemetry 1 0 A 16 F4 1C 00 00 F5 00 1F FA B6 03 14 6D 66 09 EC FE
  11.650000 1  123             Rx   d 8 E9 00 4A 00 AA 55 0C 00
  11.700000 1  123             Rx   d 8 EA 00 49 00 AA 55 0D 00
  11.701000 CANFD   1 Rx 2A0 VehicleDynamics 1 0 F 64 A3 1C F4 04 8A 35 A7 00 5A 02 77 03 D2 12 13 00 00 00 00 00 00 00 00 00 00 00 00 00 00 00 00 00 00 00 00 00 00 00 00 00 F1 02 00 00 00 00 00 00 00 00 00 00 00 00 00 00 00 00 00 00 00 00 00 A5
  11.702000 CANFD   1 Rx 182 CompactStatus 1 0 8 8 49 00 EA 5A 00 00 00 00
  11.750000 1  123             Rx   d 8 EB 00 49 00 AA 55 0E 00
  11.753000 1  300             Rx   d 8 00 00 00 00 7D 1C 7D 1C
  11.800000 1  123             Rx   d 8 EC 00 49 00 AA 55 0F 00
  11.801000 CANFD   1 Rx 2A0 VehicleDynamics 1 0 F 64 59 1C F3 04 29 35 A9 00 5C 02 77 03 D2 12 13 00 00 00 00 00 00 00 00 00 00 00 00 00 00 00 00 00 00 00 00 00 00 00 00 00 F1 02 00 00 00 00 00 00 00 00 00 00 00 00 00 00 00 00 00 00 00 00 00 A5
  11.802000 CANFD   1 Rx 182 CompactStatus 1 0 8 8 49 00 EC 5A 00 00 00 00
  11.850000 1  123             Rx   d 8 ED 00 48 00 AA 55 10 00
  11.900000 1  123             Rx   d 8 EE 00 48 00 AA 55 00 00
  11.901000 CANFD   1 Rx 2A0 VehicleDynamics 1 0 F 64 17 1C F2 04 D4 34 AA 00 5F 02 77 03 D2 12 13 00 00 00 00 00 00 00 00 00 00 00 00 00 00 00 00 00 00 00 00 00 00 00 00 00 F2 02 00 00 00 00 00 00 00 00 00 00 00 00 00 00 00 00 00 00 00 00 00 A5
  11.902000 CANFD   1 Rx 182 CompactStatus 1 0 8 8 48 00 EE 5A 00 00 00 00
  11.950000 1  123             Rx   d 8 EF 00 48 00 AA 55 01 00
  12.000000 1  123             Rx   d 8 F0 00 47 00 AA 55 02 00
  12.001000 CANFD   1 Rx 2A0 VehicleDynamics 1 0 F 64 DE 1B F1 04 8B 34 AC 00 62 02 77 03 D2 12 13 00 00 00 00 00 00 00 00 00 00 00 00 00 00 00 00 00 00 00 00 00 00 00 00 00 F3 02 00 00 00 00 00 00 00 00 00 00 00 00 00 00 00 00 00 00 00 00 00 A5
  12.002000 CANFD   1 Rx 182 CompactStatus 1 0 8 8 47 00 F0 5A 00 00 00 00
  12.003000 1  300             Rx   d 8 00 00 00 00 DE 1B DE 1B
   12.004000 CANFD 2 Rx 184 Fd16Telemetry 1 0 A 16 DE 1B 00 00 F1 01 52 FA A1 03 D7 70 66 09 F7 FE
  12.005000 1  310             Tx   d 8 00 20 03 40 00 00 00 00
  12.006000 2  18FF50E5x       Rx   d 8 3F F9 03 75 05 3C 05 0C
  12.006500 2  5A0x            Rx   d 8 CB 02 22 FE D9 01 B2 01
  12.007000 2  400             Rx   r 0
  12.050000 1  123             Rx   d 8 F1 00 47 00 AA 55 03 00
  12.100000 1  123             Rx   d 8 F2 00 47 00 AA 55 04 00
  12.101000 CANFD   1 Rx 2A0 VehicleDynamics 1 0 F 64 AE 1B F0 04 4F 34 AD 00 65 02 77 03 D2 12 13 00 00 00 00 00 00 00 00 00 00 00 00 00 00 00 00 00 00 00 00 00 00 00 00 00 F3 02 00 00 00 00 00 00 00 00 00 00 00 00 00 00 00 00 00 00 00 00 00 A5
  12.102000 CANFD   1 Rx 182 CompactStatus 1 0 8 8 47 00 F2 5A 00 00 00 00
  12.150000 1  123             Rx   d 8 F3 00 47 00 AA 55 05 00
  12.200000 1  123             Rx   d 8 F4 00 46 00 AA 55 06 00
  12.201000 CANFD   1 Rx 2A0 VehicleDynamics 1 0 F 64 89 1B EF 04 21 34 AF 00 69 02 77 03 D2 12 13 00 00 00 00 00 00 00 00 00 00 00 00 00 00 00 00 00 00 00 00 00 00 00 00 00 F4 02 00 00 00 00 00 00 00 00 00 00 00 00 00 00 00 00 00 00 00 00 00 A5
  12.202000 CANFD   1 Rx 182 CompactStatus 1 0 8 8 46 00 F4 5A 00 00 00 00
  12.250000 1  123             Rx   d 8 F5 00 46 00 AA 55 07 00
  12.253000 1  300             Rx   d 8 00 00 00 00 7A 1B 7A 1B
  12.300000 1  123             Rx   d 8 F6 00 46 00 AA 55 08 00
  12.301000 CANFD   1 Rx 2A0 VehicleDynamics 1 0 F 64 6E 1B EE 04 01 34 B0 00 6C 02 77 03 D2 12 13 00 00 00 00 00 00 00 00 00 00 00 00 00 00 00 00 00 00 00 00 00 00 00 00 00 F4 02 00 00 00 00 00 00 00 00 00 00 00 00 00 00 00 00 00 00 00 00 00 A5
  12.302000 CANFD   1 Rx 182 CompactStatus 1 0 8 8 46 00 F6 5A 00 00 00 00
  12.350000 1  123             Rx   d 8 F7 00 46 00 AA 55 09 00
  12.400000 1  123             Rx   d 8 F8 00 46 00 AA 55 0A 00
  12.401000 CANFD   1 Rx 2A0 VehicleDynamics 1 0 F 64 5D 1B ED 04 EF 33 B2 00 6F 02 77 03 D2 12 13 00 00 00 00 00 00 00 00 00 00 00 00 00 00 00 00 00 00 00 00 00 00 00 00 00 F5 02 00 00 00 00 00 00 00 00 00 00 00 00 00 00 00 00 00 00 00 00 00 A5
  12.402000 CANFD   1 Rx 182 CompactStatus 1 0 8 8 46 00 F8 5A 00 00 00 00
   12.404000 CANFD 2 Rx 184 Fd16Telemetry 1 0 A 16 5D 1B 00 00 E2 02 B0 FA 88 03 99 74 66 09 0A FF
  12.450000 1  123             Rx   d 8 F9 00 46 00 AA 55 0B 00
  12.500000 1  123             Rx   d 8 FA 00 46 00 AA 55 0C 00
  12.501000 CANFD   1 Rx 2A0 VehicleDynamics 1 0 F 64 58 1B ED 04 ED 33 B3 00 72 02 77 03 D2 12 13 00 00 00 00 00 00 00 00 00 00 00 00 00 00 00 00 00 00 00 00 00 00 00 00 00 F5 02 00 00 00 00 00 00 00 00 00 00 00 00 00 00 00 00 00 00 00 00 00 A5
  12.502000 CANFD   1 Rx 182 CompactStatus 1 0 8 8 46 00 FA 5A 00 00 00 00
  12.503000 1  300             Rx   d 8 00 00 00 00 58 1B 58 1B
  12.505000 1  310             Tx   d 8 00 20 03 40 00 00 00 00
  12.550000 1  123             Rx   d 8 FB 00 46 00 AA 55 0D 00
  12.600000 1  123             Rx   d 8 FC 00 46 00 AA 55 0E 00
  12.601000 CANFD   1 Rx 2A0 VehicleDynamics 1 0 F 64 5D 1B EC 04 F9 33 B5 00 75 02 77 03 D2 12 13 00 00 00 00 00 00 00 00 00 00 00 00 00 00 00 00 00 00 00 00 00 00 00 00 00 F6 02 00 00 00 00 00 00 00 00 00 00 00 00 00 00 00 00 00 00 00 00 00 A5
  12.602000 CANFD   1 Rx 182 CompactStatus 1 0 8 8 46 00 FC 5A 00 00 00 00
  12.650000 1  123             Rx   d 8 FD 00 46 00 AA 55 0F 00
  12.700000 1  123             Rx   d 8 FE 00 46 00 AA 55 10 00
  12.701000 CANFD   1 Rx 2A0 VehicleDynamics 1 0 F 64 6E 1B EB 04 14 34 B6 00 78 02 77 03 D2 12 13 00 00 00 00 00 00 00 00 00 00 00 00 00 00 00 00 00 00 00 00 00 00 00 00 00 F7 02 00 00 00 00 00 00 00 00 00 00 00 00 00 00 00 00 00 00 00 00 00 A5
  12.702000 CANFD   1 Rx 182 CompactStatus 1 0 8 8 46 00 FE 5A 00 00 00 00
  12.750000 1  123             Rx   d 8 FF 00 46 00 AA 55 00 00
  12.753000 1  300             Rx   d 8 00 00 00 00 7A 1B 7A 1B
  12.800000 1  123             Rx   d 8 00 01 46 00 AA 55 01 00
  12.801000 CANFD   1 Rx 2A0 VehicleDynamics 1 0 F 64 89 1B EA 04 3E 34 B7 00 7B 02 77 03 D3 12 13 00 00 00 00 00 00 00 00 00 00 00 00 00 00 00 00 00 00 00 00 00 00 00 00 00 F7 02 00 00 00 00 00 00 00 00 00 00 00 00 00 00 00 00 00 00 00 00 00 A5
  12.802000 CANFD   1 Rx 182 CompactStatus 1 0 8 8 46 00 00 5A 00 00 00 00
   12.804000 CANFD 2 Rx 184 Fd16Telemetry 1 0 A 16 89 1B 00 00 C2 03 36 FB 6C 03 5C 78 66 09 24 FF
  12.850000 1  123             Rx   d 8 01 01 47 00 AA 55 02 00
  12.900000 1  123             Rx   d 8 02 01 47 00 AA 55 03 00
  12.901000 CANFD   1 Rx 2A0 VehicleDynamics 1 0 F 64 AE 1B E9 04 76 34 B9 00 7E 02 77 03 D3 12 13 00 00 00 00 00 00 00 00 00 00 00 00 00 00 00 00 00 00 00 00 00 00 00 00 00 F8 02 00 00 00 00 00 00 00 00 00 00 00 00 00 00 00 00 00 00 00 00 00 A5
  12.902000 CANFD   1 Rx 182 CompactStatus 1 0 8 8 47 00 02 5A 00 00 00 00
  12.950000 1  123             Rx   d 8 03 01 47 00 AA 55 04 00
  13.000000 1  123             Rx   d 8 04 01 47 00 AA 55 05 00
  13.001000 CANFD   1 Rx 2A0 VehicleDynamics 1 0 F 64 DE 1B E8 04 BB 34 BA 00 82 02 77 03 D3 12 13 00 00 00 00 00 00 00 00 00 00 00 00 00 00 00 00 00 00 00 00 00 00 00 00 00 F8 02 00 00 00 00 00 00 00 00 00 00 00 00 00 00 00 00 00 00 00 00 00 A5
  13.002000 CANFD   1 Rx 182 CompactStatus 1 0 8 8 47 00 04 5A 00 00 00 00
  13.003000 1  300             Rx   d 8 00 00 00 00 DE 1B DE 1B
  13.005000 1  310             Tx   d 8 00 20 03 40 00 00 00 00
  13.006000 2  18FF50E5x       Rx   d 8 3F FA 03 71 05 41 05 0D
  13.006500 2  5A0x            Rx   d 8 B9 02 28 FE 69 01 AE 01
  13.050000 1  123             Rx   d 8 05 01 48 00 AA 55 06 00
  13.100000 1  123             Rx   d 8 06 01 48 00 AA 55 07 00
  13.101000 CANFD   1 Rx 2A0 VehicleDynamics 1 0 F 64 17 1C E7 04 0D 35 BC 00 85 02 77 03 D3 12 13 00 00 00 00 00 00 00 00 00 00 00 00 00 00 00 00 00 00 00 00 00 00 00 00 00 F9 02 00 00 00 00 00 00 00 00 00 00 00 00 00 00 00 00 00 00 00 00 00 A5
  13.102000 CANFD   1 Rx 182 CompactStatus 1 0 8 8 48 00 06 5A 00 00 00 00
  13.150000 1  123             Rx   d 8 07 01 48 00 AA 55 08 00
  13.200000 1  123             Rx   d 8 08 01 49 00 AA 55 09 00
  13.201000 CANFD   1 Rx 2A0 VehicleDynamics 1 0 F 64 59 1C E6 04 6B 35 BD 00 88 02 77 03 D3 12 13 00 00 00 00 00 00 00 00 00 00 00 00 00 00 00 00 00 00 00 00 00 00 00 00 00 F9 02 00 00 00 00 00 00 00 00 00 00 00 00 00 00 00 00 00 00 00 00 00 A5
  13.202000 CANFD   1 Rx 182 CompactStatus 1 0 8 8 49 00 08 5A 00 00 00 00
   13.204000 CANFD 2 Rx 184 Fd16Telemetry 1 0 A 16 59 1C 00 00 8A 04 E0 FB 4C 03 1E 7C 66 09 44 FF
  13.250000 1  123             Rx   d 8 09 01 49 00 AA 55 0A 00
  13.253000 1  300             Rx   d 8 00 00 00 00 7D 1C 7D 1C
  13.300000 1  123             Rx   d 8 0A 01 49 00 AA 55 0B 00
  13.301000 CANFD   1 Rx 2A0 VehicleDynamics 1 0 F 64 A3 1C E6 04 D4 35 BF 00 8B 02 77 03 D3 12 13 00 00 00 00 00 00 00 00 00 00 00 00 00 00 00 00 00 00 00 00 00 00 00 00 00 FA 02 00 00 00 00 00 00 00 00 00 00 00 00 00 00 00 00 00 00 00 00 00 A5
  13.302000 CANFD   1 Rx 182 CompactStatus 1 0 8 8 49 00 0A 5A 00 00 00 00
  13.350000 1  123             Rx   d 8 0B 01 4A 00 AA 55 0C 00
  13.400000 1  123             Rx   d 8 0C 01 4A 00 AA 55 0D 00
  13.401000 CANFD   1 Rx 2A0 VehicleDynamics 1 0 F 64 F4 1C E5 04 47 36 C0 00 8E 02 78 03 D3 12 13 00 00 00 00 00 00 00 00 00 00 00 00 00 00 00 00 00 00 00 00 00 00 00 00 00 FA 02 00 00 00 00 00 00 00 00 00 00 00 00 00 00 00 00 00 00 00 00 00 A5
  13.402000 CANFD   1 Rx 182 CompactStatus 1 0 8 8 4A 00 0C 5A 00 00 00 00
  13.450000 1  123             Rx   d 8 0D 01 4B 00 AA 55 0E 00
  13.500000 1  123             Rx   d 8 0E 01 4B 00 AA 55 0F 00
  13.501000 CANFD   1 Rx 2A0 VehicleDynamics 1 0 F 64 4C 1D E4 04 C3 36 C2 00 90 02 78 03 D3 12 13 00 00 00 00 00 00 00 00 00 00 00 00 00 00 00 00 00 00 00 00 00 00 00 00 00 FB 02 00 00 00 00 00 00 00 00 00 00 00 00 00 00 00 00 00 00 00 00 00 A5
  13.502000 CANFD   1 Rx 182 CompactStatus 1 0 8 8 4B 00 0E 5A 00 00 00 00
  13.503000 1  300             Rx   d 8 00 00 00 00 4C 1D 4C 1D
  13.505000 1  310             Tx   d 8 00 20 03 40 00 00 00 00
  12.345000 1 555 Rx d 8 01 02 03
  12.346000 unsupported event for diagnostics smoke
  13.550000 1  123             Rx   d 8 0F 01 4B 00 AA 55 10 00
  13.600000 1  123             Rx   d 8 10 01 4C 00 AA 55 00 00
  13.601000 CANFD   1 Rx 2A0 VehicleDynamics 1 0 F 64 A9 1D E3 04 46 37 C3 00 93 02 78 03 D3 12 13 00 00 00 00 00 00 00 00 00 00 00 00 00 00 00 00 00 00 00 00 00 00 00 00 00 FB 02 00 00 00 00 00 00 00 00 00 00 00 00 00 00 00 00 00 00 00 00 00 A5
  13.602000 CANFD   1 Rx 182 CompactStatus 1 0 8 8 4C 00 10 5A 00 00 00 00
   13.604000 CANFD 2 Rx 184 Fd16Telemetry 1 0 A 16 A9 1D 00 00 33 05 AC FC 2A 03 E1 7F 66 09 69 FF
  13.650000 1  123             Rx   d 8 11 01 4C 00 AA 55 01 00
  13.700000 1  123             Rx   d 8 12 01 4D 00 AA 55 02 00
  13.701000 CANFD   1 Rx 2A0 VehicleDynamics 1 0 F 64 0B 1E E2 04 CF 37 C4 00 96 02 78 03 D3 12 13 00 00 00 00 00 00 00 00 00 00 00 00 00 00 00 00 00 00 00 00 00 00 00 00 00 FC 02 00 00 00 00 00 00 00 00 00 00 00 00 00 00 00 00 00 00 00 00 00 A5
  13.702000 CANFD   1 Rx 182 CompactStatus 1 0 8 8 4D 00 12 5A 00 00 00 00
  13.750000 1  123             Rx   d 8 13 01 4D 00 AA 55 03 00
  13.753000 1  300             Rx   d 8 00 00 00 00 3D 1E 3D 1E
  13.800000 1  123             Rx   d 8 14 01 4E 00 AA 55 04 00
  13.801000 CANFD   1 Rx 2A0 VehicleDynamics 1 0 F 64 70 1E E1 04 5D 38 C5 00 98 02 78 03 D3 12 13 00 00 00 00 00 00 00 00 00 00 00 00 00 00 00 00 00 00 00 00 00 00 00 00 00 FC 02 00 00 00 00 00 00 00 00 00 00 00 00 00 00 00 00 00 00 00 00 00 A5
  13.802000 CANFD   1 Rx 182 CompactStatus 1 0 8 8 4E 00 14 5A 00 00 00 00
  13.850000 1  123             Rx   d 8 15 01 4E 00 AA 55 05 00
  13.900000 1  123             Rx   d 8 16 01 4F 00 AA 55 06 00
  13.901000 CANFD   1 Rx 2A0 VehicleDynamics 1 0 F 64 D7 1E E1 04 ED 38 C7 00 9B 02 78 03 D3 12 13 00 00 00 00 00 00 00 00 00 00 00 00 00 00 00 00 00 00 00 00 00 00 00 00 00 FD 02 00 00 00 00 00 00 00 00 00 00 00 00 00 00 00 00 00 00 00 00 00 A5
  13.902000 CANFD   1 Rx 182 CompactStatus 1 0 8 8 4F 00 16 5A 00 00 00 00
  13.950000 1  123             Rx   d 8 17 01 4F 00 AA 55 07 00
  14.000000 1  123             Rx   d 8 18 01 50 00 AA 55 08 00
  14.001000 CANFD   1 Rx 2A0 VehicleDynamics 1 0 F 64 40 1F E0 04 7F 39 C8 00 9D 02 78 03 D3 12 13 00 00 00 00 00 00 00 00 00 00 00 00 00 00 00 00 00 00 00 00 00 00 00 00 00 FD 02 00 00 00 00 00 00 00 00 00 00 00 00 00 00 00 00 00 00 00 00 00 A5
  14.002000 CANFD   1 Rx 182 CompactStatus 1 0 8 8 50 00 18 5A 00 00 00 00
  14.003000 1  300             Rx   d 8 00 00 00 00 40 1F 40 1F
   14.004000 CANFD 2 Rx 184 Fd16Telemetry 1 0 A 16 40 1F 00 00 B9 05 92 FD 05 03 A4 83 66 09 93 FF
  14.005000 1  310             Tx   d 8 00 20 03 40 00 00 00 00
  14.006000 2  18FF50E5x       Rx   d 8 3F FA 03 6C 05 44 05 0E
  14.006500 2  5A0x            Rx   d 8 A9 02 2E FE EA 00 AA 01
  14.007000 2  400             Rx   r 0
  14.050000 1  123             Rx   d 8 19 01 51 00 AA 55 09 00
  14.100000 1  123             Rx   d 8 1A 01 51 00 AA 55 0A 00
  14.101000 CANFD   1 Rx 2A0 VehicleDynamics 1 0 F 64 A9 1F DF 04 11 3A C9 00 A0 02 78 03 D3 12 13 00 00 00 00 00 00 00 00 00 00 00 00 00 00 00 00 00 00 00 00 00 00 00 00 00 FE 02 00 00 00 00 00 00 00 00 00 00 00 00 00 00 00 00 00 00 00 00 00 A5
  14.102000 CANFD   1 Rx 182 CompactStatus 1 0 8 8 51 00 1A 5A 00 00 00 00
  14.150000 1  123             Rx   d 8 1B 01 52 00 AA 55 0B 00
  14.200000 1  123             Rx   d 8 1C 01 52 00 AA 55 0C 00
  14.201000 CANFD   1 Rx 2A0 VehicleDynamics 1 0 F 64 10 20 DE 04 A1 3A CA 00 A2 02 78 03 D3 12 13 00 00 00 00 00 00 00 00 00 00 00 00 00 00 00 00 00 00 00 00 00 00 00 00 00 FE 02 00 00 00 00 00 00 00 00 00 00 00 00 00 00 00 00 00 00 00 00 00 A5
  14.202000 CANFD   1 Rx 182 CompactStatus 1 0 8 8 52 00 1C 5A 00 00 00 00
  14.250000 1  123             Rx   d 8 1D 01 53 00 AA 55 0D 00
  14.253000 1  300             Rx   d 8 00 00 00 00 43 20 43 20
  14.300000 1  123             Rx   d 8 1E 01 53 00 AA 55 0E 00
  14.301000 CANFD   1 Rx 2A0 VehicleDynamics 1 0 F 64 75 20 DD 04 2D 3B CB 00 A4 02 78 03 D3 12 13 00 00 00 00 00 00 00 00 00 00 00 00 00 00 00 00 00 00 00 00 00 00 00 00 00 FF 02 00 00 00 00 00 00 00 00 00 00 00 00 00 00 00 00 00 00 00 00 00 A5
  14.302000 CANFD   1 Rx 182 CompactStatus 1 0 8 8 53 00 1E 5A 00 00 00 00
  14.350000 1  123             Rx   d 8 1F 01 54 00 AA 55 0F 00
  14.400000 1  123             Rx   d 8 20 01 54 00 AA 55 10 00
  14.401000 CANFD   1 Rx 2A0 VehicleDynamics 1 0 F 64 D7 20 DD 04 B5 3B CC 00 A6 02 78 03 D3 12 13 00 00 00 00 00 00 00 00 00 00 00 00 00 00 00 00 00 00 00 00 00 00 00 00 00 FF 02 00 00 00 00 00 00 00 00 00 00 00 00 00 00 00 00 00 00 00 00 00 A5
  14.402000 CANFD   1 Rx 182 CompactStatus 1 0 8 8 54 00 20 5A 00 00 00 00
   14.404000 CANFD 2 Rx 184 Fd16Telemetry 1 0 A 16 D7 20 00 00 18 06 8D FE DE 02 66 87 66 09 BF FF
  14.450000 1  123             Rx   d 8 21 01 55 00 AA 55 00 00
  14.500000 1  123             Rx   d 8 22 01 55 00 AA 55 01 00
  14.501000 CANFD   1 Rx 2A0 VehicleDynamics 1 0 F 64 34 21 DC 04 37 3C CD 00 A8 02 78 03 D3 12 13 00 00 00 00 00 00 00 00 00 00 00 00 00 00 00 00 00 00 00 00 00 00 00 00 00 00 03 00 00 00 00 00 00 00 00 00 00 00 00 00 00 00 00 00 00 00 00 00 A5
  14.502000 CANFD   1 Rx 182 CompactStatus 1 0 8 8 55 00 22 5A 00 00 00 00
  14.503000 1  300             Rx   d 8 00 00 00 00 34 21 34 21
  14.505000 1  310             Tx   d 8 00 20 03 40 00 00 00 00
  14.550000 1  123             Rx   d 8 23 01 55 00 AA 55 02 00
  14.600000 1  123             Rx   d 8 24 01 56 00 AA 55 03 00
  14.601000 CANFD   1 Rx 2A0 VehicleDynamics 1 0 F 64 8C 21 DB 04 B1 3C CE 00 AA 02 78 03 D3 12 13 00 00 00 00 00 00 00 00 00 00 00 00 00 00 00 00 00 00 00 00 00 00 00 00 00 00 03 00 00 00 00 00 00 00 00 00 00 00 00 00 00 00 00 00 00 00 00 00 A5
  14.602000 CANFD   1 Rx 182 CompactStatus 1 0 8 8 56 00 24 5A 00 00 00 00
  14.650000 1  123             Rx   d 8 25 01 56 00 AA 55 04 00
  14.700000 1  123             Rx   d 8 26 01 57 00 AA 55 05 00
  14.701000 CANFD   1 Rx 2A0 VehicleDynamics 1 0 F 64 DD 21 DA 04 22 3D CE 00 AB 02 78 03 D4 12 13 00 00 00 00 00 00 00 00 00 00 00 00 00 00 00 00 00 00 00 00 00 00 00 00 00 01 03 00 00 00 00 00 00 00 00 00 00 00 00 00 00 00 00 00 00 00 00 00 A5
  14.702000 CANFD   1 Rx 182 CompactStatus 1 0 8 8 57 00 26 5A 00 00 00 00
  14.750000 1  123             Rx   d 8 27 01 57 00 AA 55 06 00
  14.753000 1  300             Rx   d 8 00 00 00 00 03 22 03 22
  14.800000 1  123             Rx   d 8 28 01 57 00 AA 55 07 00
  14.801000 CANFD   1 Rx 2A0 VehicleDynamics 1 0 F 64 27 22 D9 04 89 3D CF 00 AD 02 78 03 D4 12 13 00 00 00 00 00 00 00 00 00 00 00 00 00 00 00 00 00 00 00 00 00 00 00 00 00 01 03 00 00 00 00 00 00 00 00 00 00 00 00 00 00 00 00 00 00 00 00 00 A5
  14.802000 CANFD   1 Rx 182 CompactStatus 1 0 8 8 57 00 28 5A 00 00 00 00
   14.804000 CANFD 2 Rx 184 Fd16Telemetry 1 0 A 16 27 22 00 00 4B 06 96 FF B5 02 29 8B 66 09 EE FF
  14.850000 1  123             Rx   d 8 29 01 58 00 AA 55 08 00
  14.900000 1  123             Rx   d 8 2A 01 58 00 AA 55 09 00
  14.901000 CANFD   1 Rx 2A0 VehicleDynamics 1 0 F 64 69 22 D9 04 E5 3D D0 00 AE 02 78 03 D4 12 13 00 00 00 00 00 00 00 00 00 00 00 00 00 00 00 00 00 00 00 00 00 00 00 00 00 02 03 00 00 00 00 00 00 00 00 00 00 00 00 00 00 00 00 00 00 00 00 00 A5
  14.902000 CANFD   1 Rx 182 CompactStatus 1 0 8 8 58 00 2A 5A 00 00 00 00
  14.950000 1  123             Rx   d 8 2B 01 58 00 AA 55 0A 00
  15.000000 1  123             Rx   d 8 2C 01 59 00 AA 55 0B 00
  15.001000 CANFD   1 Rx 2A0 VehicleDynamics 1 0 F 64 A2 22 D8 04 34 3E D0 00 AF 02 78 03 D4 12 13 00 00 00 00 00 00 00 00 00 00 00 00 00 00 00 00 00 00 00 00 00 00 00 00 00 02 03 00 00 00 00 00 00 00 00 00 00 00 00 00 00 00 00 00 00 00 00 00 A5
  15.002000 CANFD   1 Rx 182 CompactStatus 1 0 8 8 59 00 2C 5A 00 00 00 00
  15.003000 1  300             Rx   d 8 00 00 00 00 A2 22 A2 22
  15.005000 1  310             Tx   d 8 80 20 03 40 00 00 00 00
  15.006000 2  18FF50E5x       Rx   d 8 3F FA 03 68 05 46 05 0F
  15.006500 2  5A0x            Rx   d 8 9D 02 34 FE 63 00 A7 01
  15.050000 1  123             Rx   d 8 2D 01 59 00 AA 55 0C 00
  15.100000 1  123             Rx   d 8 2E 01 59 00 AA 55 0D 00
  15.101000 CANFD   1 Rx 2A0 VehicleDynamics 1 0 F 64 D2 22 D7 04 76 3E D1 00 B0 02 78 03 D4 12 13 00 00 00 00 00 00 00 00 00 00 00 00 00 00 00 00 00 00 00 00 00 00 00 00 00 02 03 00 00 00 00 00 00 00 00 00 00 00 00 00 00 00 00 00 00 00 00 00 A5
  15.102000 CANFD   1 Rx 182 CompactStatus 1 0 8 8 59 00 2E 5A 00 00 00 00
  15.150000 1  123             Rx   d 8 2F 01 59 00 AA 55 0E 00
  15.200000 1  123             Rx   d 8 30 01 5A 00 AA 55 0F 00
  15.201000 CANFD   1 Rx 2A0 VehicleDynamics 1 0 F 64 F7 22 D7 04 AA 3E D1 00 B1 02 78 03 D4 12 13 00 00 00 00 00 00 00 00 00 00 00 00 00 00 00 00 00 00 00 00 00 00 00 00 00 03 03 00 00 00 00 00 00 00 00 00 00 00 00 00 00 00 00 00 00 00 00 00 A5
  15.202000 CANFD   1 Rx 182 CompactStatus 1 0 8 8 5A 00 30 5A 00 00 00 00
   15.204000 CANFD 2 Rx 184 Fd16Telemetry 1 0 A 16 F7 22 00 00 51 06 A6 00 8A 02 4B 02 66 09 1D 00
  15.250000 1  123             Rx   d 8 31 01 5A 00 AA 55 10 00
  15.253000 1  300             Rx   d 8 00 00 00 00 06 23 06 23
  15.300000 1  123             Rx   d 8 32 01 5A 00 AA 55 00 00
  15.301000 CANFD   1 Rx 2A0 VehicleDynamics 1 0 F 64 12 23 D6 04 D0 3E D1 00 B2 02 78 03 D4 12 13 00 00 00 00 00 00 00 00 00 00 00 00 00 00 00 00 00 00 00 00 00 00 00 00 00 03 03 00 00 00 00 00 00 00 00 00 00 00 00 00 00 00 00 00 00 00 00 00 A5
  15.302000 CANFD   1 Rx 182 CompactStatus 1 0 8 8 5A 00 32 5A 00 00 00 00
  15.350000 1  123             Rx   d 8 33 01 5A 00 AA 55 01 00
  15.400000 1  123             Rx   d 8 34 01 5A 00 AA 55 02 00
  15.401000 CANFD   1 Rx 2A0 VehicleDynamics 1 0 F 64 23 23 D5 04 E7 3E D2 00 B2 02 78 03 D4 12 13 00 00 00 00 00 00 00 00 00 00 00 00 00 00 00 00 00 00 00 00 00 00 00 00 00 04 03 00 00 00 00 00 00 00 00 00 00 00 00 00 00 00 00 00 00 00 00 00 A5
  15.402000 CANFD   1 Rx 182 CompactStatus 1 0 8 8 5A 00 34 5A 00 00 00 00
  15.450000 1  123             Rx   d 8 35 01 5A 00 AA 55 03 00
  15.500000 1  123             Rx   d 8 36 01 5A 00 AA 55 04 00
  15.501000 CANFD   1 Rx 2A0 VehicleDynamics 1 0 F 64 28 23 D5 04 EF 3E D2 00 B3 02 78 03 D4 12 13 00 00 00 00 00 00 00 00 00 00 00 00 00 00 00 00 00 00 00 00 00 00 00 00 00 04 03 00 00 00 00 00 00 00 00 00 00 00 00 00 00 00 00 00 00 00 00 00 A5
  15.502000 CANFD   1 Rx 182 CompactStatus 1 0 8 8 5A 00 36 5A 00 00 00 00
  15.503000 1  300             Rx   d 8 00 00 00 00 28 23 28 23
  15.505000 1  310             Tx   d 8 80 20 03 40 00 00 00 00
  15.550000 1  123             Rx   d 8 37 01 5A 00 AA 55 05 00
  15.600000 1  123             Rx   d 8 38 01 5A 00 AA 55 06 00
  15.601000 CANFD   1 Rx 2A0 VehicleDynamics 1 0 F 64 23 23 D4 04 E8 3E D2 00 B3 02 78 03 D4 12 13 00 00 00 00 00 00 00 00 00 00 00 00 00 00 00 00 00 00 00 00 00 00 00 00 00 05 03 00 00 00 00 00 00 00 00 00 00 00 00 00 00 00 00 00 00 00 00 00 A5
  15.602000 CANFD   1 Rx 182 CompactStatus 1 0 8 8 5A 00 38 5A 00 00 00 00
   15.604000 CANFD 2 Rx 184 Fd16Telemetry 1 0 A 16 23 23 00 00 29 06 B5 01 5D 02 0E 06 66 09 4B 00
  15.650000 1  123             Rx   d 8 39 01 5A 00 AA 55 07 00
  15.700000 1  123             Rx   d 8 3A 01 5A 00 AA 55 08 00
  15.701000 CANFD   1 Rx 2A0 VehicleDynamics 1 0 F 64 12 23 D3 04 D2 3E D2 00 B3 02 78 03 D4 12 13 00 00 00 00 00 00 00 00 00 00 00 00 00 00 00 00 00 00 00 00 00 00 00 00 00 05 03 00 00 00 00 00 00 00 00 00 00 00 00 00 00 00 00 00 00 00 00 00 A5
  15.702000 CANFD   1 Rx 182 CompactStatus 1 0 8 8 5A 00 3A 5A 00 00 00 00
  15.750000 1  123             Rx   d 8 3B 01 5A 00 AA 55 09 00
  15.753000 1  300             Rx   d 8 00 00 00 00 06 23 06 23
  15.800000 1  123             Rx   d 8 3C 01 5A 00 AA 55 0A 00
  15.801000 CANFD   1 Rx 2A0 VehicleDynamics 1 0 F 64 F7 22 D3 04 AD 3E D2 00 B3 02 78 03 D4 12 13 00 00 00 00 00 00 00 00 00 00 00 00 00 00 00 00 00 00 00 00 00 00 00 00 00 05 03 00 00 00 00 00 00 00 00 00 00 00 00 00 00 00 00 00 00 00 00 00 A5
  15.802000 CANFD   1 Rx 182 CompactStatus 1 0 8 8 5A 00 3C 5A 00 00 00 00
  15.850000 1  123             Rx   d 8 3D 01 59 00 AA 55 0B 00
  15.900000 1  123             Rx   d 8 3E 01 59 00 AA 55 0C 00
  15.901000 CANFD   1 Rx 2A0 VehicleDynamics 1 0 F 64 D2 22 D2 04 7A 3E D2 00 B3 02 78 03 D4 12 13 00 00 00 00 00 00 00 00 00 00 00 00 00 00 00 00 00 00 00 00 00 00 00 00 00 06 03 00 00 00 00 00 00 00 00 00 00 00 00 00 00 00 00 00 00 00 00 00 A5
  15.902000 CANFD   1 Rx 182 CompactStatus 1 0 8 8 59 00 3E 5A 00 00 00 00
  15.950000 1  123             Rx   d 8 3F 01 59 00 AA 55 0D 00
  16.000000 1  123             Rx   d 8 40 01 59 00 AA 55 0E 00
  16.001000 CANFD   1 Rx 2A0 VehicleDynamics 1 0 F 64 A2 22 D2 04 39 3E D2 00 B2 02 78 03 D4 12 13 00 00 00 00 00 00 00 00 00 00 00 00 00 00 00 00 00 00 00 00 00 00 00 00 00 06 03 00 00 00 00 00 00 00 00 00 00 00 00 00 00 00 00 00 00 00 00 00 A5
  16.002000 CANFD   1 Rx 182 CompactStatus 1 0 8 8 59 00 40 5A 00 00 00 00
  16.003000 1  300             Rx   d 8 00 00 00 00 A2 22 A2 22
   16.004000 CANFD 2 Rx 184 Fd16Telemetry 1 0 A 16 A2 22 00 00 D4 05 BC 02 2E 02 D0 09 66 09 77 00
  16.005000 1  310             Tx   d 8 80 20 03 40 00 00 00 00
  16.006000 2  18FF50E5x       Rx   d 8 3F FB 03 63 05 46 05 10
  16.006500 2  5A0x            Rx   d 8 94 02 3A FE D7 FF A4 01
  16.007000 2  400             Rx   r 0
  16.050000 1  123             Rx   d 8 41 01 58 00 AA 55 0F 00
  16.100000 1  123             Rx   d 8 42 01 58 00 AA 55 10 00
  16.101000 CANFD   1 Rx 2A0 VehicleDynamics 1 0 F 64 69 22 D1 04 EA 3D D1 00 B2 02 78 03 D4 12 13 00 00 00 00 00 00 00 00 00 00 00 00 00 00 00 00 00 00 00 00 00 00 00 00 00 07 03 00 00 00 00 00 00 00 00 00 00 00 00 00 00 00 00 00 00 00 00 00 A5
  16.102000 CANFD   1 Rx 182 CompactStatus 1 0 8 8 58 00 42 5A 00 00 00 00
  16.150000 1  123             Rx   d 8 43 01 58 00 AA 55 00 00
  16.200000 1  123             Rx   d 8 44 01 57 00 AA 55 01 00
  16.201000 CANFD   1 Rx 2A0 VehicleDynamics 1 0 F 64 27 22 D0 04 90 3D D1 00 B1 02 78 03 D4 12 13 00 00 00 00 00 00 00 00 00 00 00 00 00 00 00 00 00 00 00 00 00 00 00 00 00 07 03 00 00 00 00 00 00 00 00 00 00 00 00 00 00 00 00 00 00 00 00 00 A5
  16.202000 CANFD   1 Rx 182 CompactStatus 1 0 8 8 57 00 44 5A 00 00 00 00
  16.250000 1  123             Rx   d 8 45 01 57 00 AA 55 02 00
  16.253000 1  300             Rx   d 8 00 00 00 00 03 22 03 22
  16.300000 1  123             Rx   d 8 46 01 57 00 AA 55 03 00
  16.301000 CANFD   1 Rx 2A0 VehicleDynamics 1 0 F 64 DD 21 D0 04 2A 3D D1 00 B0 02 78 03 D4 12 13 00 00 00 00 00 00 00 00 00 00 00 00 00 00 00 00 00 00 00 00 00 00 00 00 00 08 03 00 00 00 00 00 00 00 00 00 00 00 00 00 00 00 00 00 00 00 00 00 A5
  16.302000 CANFD   1 Rx 182 CompactStatus 1 0 8 8 57 00 46 5A 00 00 00 00
  16.350000 1  123             Rx   d 8 47 01 56 00 AA 55 04 00
  16.400000 1  123             Rx   d 8 48 01 56 00 AA 55 05 00
  16.401000 CANFD   1 Rx 2A0 VehicleDynamics 1 0 F 64 8C 21 CF 04 BA 3C D0 00 AF 02 78 03 D4 12 13 00 00 00 00 00 00 00 00 00 00 00 00 00 00 00 00 00 00 00 00 00 00 00 00 00 08 03 00 00 00 00 00 00 00 00 00 00 00 00 00 00 00 00 00 00 00 00 00 A5
  16.402000 CANFD   1 Rx 182 CompactStatus 1 0 8 8 56 00 48 5A 00 00 00 00
   16.404000 CANFD 2 Rx 184 Fd16Telemetry 1 0 A 16 8C 21 00 00 53 05 B2 03 FF 01 93 0D 66 09 A0 00
  16.450000 1  123             Rx   d 8 49 01 55 00 AA 55 06 00
  16.500000 1  123             Rx   d 8 4A 01 55 00 AA 55 07 00
  16.501000 CANFD   1 Rx 2A0 VehicleDynamics 1 0 F 64 34 21 CF 04 41 3C D0 00 AE 02 78 03 D4 12 13 00 00 00 00 00 00 00 00 00 00 00 00 00 00 00 00 00 00 00 00 00 00 00 00 00 08 03 00 00 00 00 00 00 00 00 00 00 00 00 00 00 00 00 00 00 00 00 00 A5
  16.502000 CANFD   1 Rx 182 CompactStatus 1 0 8 8 55 00 4A 5A 00 00 00 00
  16.503000 1  300             Rx   d 8 00 00 00 00 34 21 34 21
  16.505000 1  310             Tx   d 8 80 20 03 40 00 00 00 00
  16.550000 1  123             Rx   d 8 4B 01 55 00 AA 55 08 00
  16.600000 1  123             Rx   d 8 4C 01 54 00 AA 55 09 00
  16.601000 CANFD   1 Rx 2A0 VehicleDynamics 1 0 F 64 D7 20 CE 04 C0 3B CF 00 AD 02 78 03 D4 12 13 00 00 00 00 00 00 00 00 00 00 00 00 00 00 00 00 00 00 00 00 00 00 00 00 00 09 03 00 00 00 00 00 00 00 00 00 00 00 00 00 00 00 00 00 00 00 00 00 A5
  16.602000 CANFD   1 Rx 182 CompactStatus 1 0 8 8 54 00 4C 5A 00 00 00 00
  16.650000 1  123             Rx   d 8 4D 01 54 00 AA 55 0A 00
  16.700000 1  123             Rx   d 8 4E 01 53 00 AA 55 0B 00
  16.701000 CANFD   1 Rx 2A0 VehicleDynamics 1 0 F 64 75 20 CE 04 39 3B CE 00 AB 02 78 03 D4 12 13 00 00 00 00 00 00 00 00 00 00 00 00 00 00 00 00 00 00 00 00 00 00 00 00 00 09 03 00 00 00 00 00 00 00 00 00 00 00 00 00 00 00 00 00 00 00 00 00 A5
  16.702000 CANFD   1 Rx 182 CompactStatus 1 0 8 8 53 00 4E 5A 00 00 00 00
  16.750000 1  123             Rx   d 8 4F 01 53 00 AA 55 0C 00
  16.753000 1  300             Rx   d 8 00 00 00 00 43 20 43 20
  16.800000 1  123             Rx   d 8 50 01 52 00 AA 55 0D 00
  16.801000 CANFD   1 Rx 2A0 VehicleDynamics 1 0 F 64 10 20 CD 04 AD 3A CE 00 AA 02 78 03 D4 12 13 00 00 00 00 00 00 00 00 00 00 00 00 00 00 00 00 00 00 00 00 00 00 00 00 00 0A 03 00 00 00 00 00 00 00 00 00 00 00 00 00 00 00 00 00 00 00 00 00 A5
  16.802000 CANFD   1 Rx 182 CompactStatus 1 0 8 8 52 00 50 5A 00 00 00 00
   16.804000 CANFD 2 Rx 184 Fd16Telemetry 1 0 A 16 10 20 00 00 AA 04 90 04 CF 01 56 11 66 09 C4 00
  16.850000 1  123             Rx   d 8 51 01 52 00 AA 55 0E 00
  16.900000 1  123             Rx   d 8 52 01 51 00 AA 55 0F 00
  16.901000 CANFD   1 Rx 2A0 VehicleDynamics 1 0 F 64 A9 1F CD 04 1E 3A CD 00 A8 02 78 03 D4 12 13 00 00 00 00 00 00 00 00 00 00 00 00 00 00 00 00 00 00 00 00 00 00 00 00 00 0A 03 00 00 00 00 00 00 00 00 00 00 00 00 00 00 00 00 00 00 00 00 00 A5
  16.902000 CANFD   1 Rx 182 CompactStatus 1 0 8 8 51 00 52 5A 00 00 00 00
  16.950000 1  123             Rx   d 8 53 01 51 00 AA 55 10 00
  17.000000 1  123             Rx   d 8 54 01 50 00 AA 55 00 00
  17.001000 CANFD   1 Rx 2A0 VehicleDynamics 1 0 F 64 40 1F CD 04 8D 39 CC 00 A6 02 78 03 D4 12 13 00 00 00 00 00 00 00 00 00 00 00 00 00 00 00 00 00 00 00 00 00 00 00 00 00 0A 03 00 00 00 00 00 00 00 00 00 00 00 00 00 00 00 00 00 00 00 00 00 A5
  17.002000 CANFD   1 Rx 182 CompactStatus 1 0 8 8 50 00 54 5A 00 00 00 00
  17.003000 1  300             Rx   d 8 00 00 00 00 40 1F 40 1F
  17.005000 1  310             Tx   d 8 80 20 03 40 00 00 00 00
  17.006000 2  18FF50E5x       Rx   d 8 3F FB 03 5E 05 45 05 11
  17.006500 2  5A0x            Rx   d 8 8D 02 40 FE 4D FF A2 01
  17.050000 1  123             Rx   d 8 55 01 4F 00 AA 55 01 00
  17.100000 1  123             Rx   d 8 56 01 4F 00 AA 55 02 00
  17.101000 CANFD   1 Rx 2A0 VehicleDynamics 1 0 F 64 D7 1E CC 04 FC 38 CB 00 A4 02 78 03 D4 12 13 00 00 00 00 00 00 00 00 00 00 00 00 00 00 00 00 00 00 00 00 00 00 00 00 00 0B 03 00 00 00 00 00 00 00 00 00 00 00 00 00 00 00 00 00 00 00 00 00 A5
  17.102000 CANFD   1 Rx 182 CompactStatus 1 0 8 8 4F 00 56 5A 00 00 00 00
  17.150000 1  123             Rx   d 8 57 01 4E 00 AA 55 03 00
  17.200000 1  123             Rx   d 8 58 01 4E 00 AA 55 04 00
  17.201000 CANFD   1 Rx 2A0 VehicleDynamics 1 0 F 64 70 1E CC 04 6C 38 CA 00 A2 02 78 03 D4 12 13 00 00 00 00 00 00 00 00 00 00 00 00 00 00 00 00 00 00 00 00 00 00 00 00 00 0B 03 00 00 00 00 00 00 00 00 00 00 00 00 00 00 00 00 00 00 00 00 00 A5
  17.202000 CANFD   1 Rx 182 CompactStatus 1 0 8 8 4E 00 58 5A 00 00 00 00
   17.204000 CANFD 2 Rx 184 Fd16Telemetry 1 0 A 16 70 1E 00 00 DC 03 51 05 9E 01 18 15 66 09 E3 00
  17.250000 1  123             Rx   d 8 59 01 4D 00 AA 55 05 00
  17.253000 1  300             Rx   d 8 00 00 00 00 3D 1E 3D 1E
  17.300000 1  123             Rx   d 8 5A 01 4D 00 AA 55 06 00
  17.301000 CANFD   1 Rx 2A0 VehicleDynamics 1 0 F 64 0B 1E CC 04 DF 37 C9 00 A0 02 78 03 D4 12 13 00 00 00 00 00 00 00 00 00 00 00 00 00 00 00 00 00 00 00 00 00 00 00 00 00 0C 03 00 00 00 00 00 00 00 00 00 00 00 00 00 00 00 00 00 00 00 00 00 A5
  17.302000 CANFD   1 Rx 182 CompactStatus 1 0 8 8 4D 00 5A 5A 00 00 00 00
  17.350000 1  123             Rx   d 8 5B 01 4C 00 AA 55 07 00
  17.400000 1  123             Rx   d 8 5C 01 4C 00 AA 55 08 00
  17.401000 CANFD   1 Rx 2A0 VehicleDynamics 1 0 F 64 A9 1D CB 04 56 37 C8 00 9E 02 78 03 D4 12 13 00 00 00 00 00 00 00 00 00 00 00 00 00 00 00 00 00 00 00 00 00 00 00 00 00 0C 03 00 00 00 00 00 00 00 00 00 00 00 00 00 00 00 00 00 00 00 00 00 A5
  17.402000 CANFD   1 Rx 182 CompactStatus 1 0 8 8 4C 00 5C 5A 00 00 00 00
  17.450000 1  123             Rx   d 8 5D 01 4B 00 AA 55 09 00
  17.500000 1  123             Rx   d 8 5E 01 4B 00 AA 55 0A 00
  17.501000 CANFD   1 Rx 2A0 VehicleDynamics 1 0 F 64 4C 1D CB 04 D4 36 C7 00 9B 02 78 03 D4 12 13 00 00 00 00 00 00 00 00 00 00 00 00 00 00 00 00 00 00 00 00 00 00 00 00 00 0C 03 00 00 00 00 00 00 00 00 00 00 00 00 00 00 00 00 00 00 00 00 00 A5
  17.502000 CANFD   1 Rx 182 CompactStatus 1 0 8 8 4B 00 5E 5A 00 00 00 00
  17.503000 1  300             Rx   d 8 00 00 00 00 4C 1D 4C 1D
  17.505000 1  310             Tx   d 8 80 20 03 40 00 00 00 00
  17.550000 1  123             Rx   d 8 5F 01 4B 00 AA 55 0B 00
  17.600000 1  123             Rx   d 8 60 01 4A 00 AA 55 0C 00
  17.601000 CANFD   1 Rx 2A0 VehicleDynamics 1 0 F 64 F4 1C CB 04 59 36 C6 00 99 02 78 03 D4 12 13 00 00 00 00 00 00 00 00 00 00 00 00 00 00 00 00 00 00 00 00 00 00 00 00 00 0D 03 00 00 00 00 00 00 00 00 00 00 00 00 00 00 00 00 00 00 00 00 00 A5
  17.602000 CANFD   1 Rx 182 CompactStatus 1 0 8 8 4A 00 60 5A 00 00 00 00
   17.604000 CANFD 2 Rx 184 Fd16Telemetry 1 0 A 16 F4 1C 00 00 F0 02 ED 05 6E 01 DB 18 66 09 FB 00
  17.650000 1  123             Rx   d 8 61 01 4A 00 AA 55 0D 00
  17.700000 1  123             Rx   d 8 62 01 49 00 AA 55 0E 00
  17.701000 CANFD   1 Rx 2A0 VehicleDynamics 1 0 F 64 A3 1C CA 04 E6 35 C4 00 96 02 78 03 D4 12 13 00 00 00 00 00 00 00 00 00 00 00 00 00 00 00 00 00 00 00 00 00 00 00 00 00 0D 03 00 00 00 00 00 00 00 00 00 00 00 00 00 00 00 00 00 00 00 00 00 A5
  17.702000 CANFD   1 Rx 182 CompactStatus 1 0 8 8 49 00 62 5A 00 00 00 00
  17.750000 1  123             Rx   d 8 63 01 49 00 AA 55 0F 00
  17.753000 1  300             Rx   d 8 00 00 00 00 7D 1C 7D 1C
  17.800000 1  123             Rx   d 8 64 01 49 00 AA 55 10 00
  17.801000 CANFD   1 Rx 2A0 VehicleDynamics 1 0 F 64 59 1C CA 04 7D 35 C3 00 94 02 78 03 D4 12 13 00 00 00 00 00 00 00 00 00 00 00 00 00 00 00 00 00 00 00 00 00 00 00 00 00 0E 03 00 00 00 00 00 00 00 00 00 00 00 00 00 00 00 00 00 00 00 00 00 A5
  17.802000 CANFD   1 Rx 182 CompactStatus 1 0 8 8 49 00 64 5A 00 00 00 00
  17.850000 1  123             Rx   d 8 65 01 48 00 AA 55 00 00
  17.900000 1  123             Rx   d 8 66 01 48 00 AA 55 01 00
  17.901000 CANFD   1 Rx 2A0 VehicleDynamics 1 0 F 64 17 1C CA 04 20 35 C2 00 91 02 78 03 D4 12 13 00 00 00 00 00 00 00 00 00 00 00 00 00 00 00 00 00 00 00 00 00 00 00 00 00 0E 03 00 00 00 00 00 00 00 00 00 00 00 00 00 00 00 00 00 00 00 00 00 A5
  17.902000 CANFD   1 Rx 182 CompactStatus 1 0 8 8 48 00 66 5A 00 00 00 00
  17.950000 1  123             Rx   d 8 67 01 48 00 AA 55 02 00
  18.000000 1  123             Rx   d 8 68 01 47 00 AA 55 03 00
  18.001000 CANFD   1 Rx 2A0 VehicleDynamics 1 0 F 64 DE 1B CA 04 CE 34 C0 00 8E 02 78 03 D4 12 13 00 00 00 00 00 00 00 00 00 00 00 00 00 00 00 00 00 00 00 00 00 00 00 00 00 0E 03 00 00 00 00 00 00 00 00 00 00 00 00 00 00 00 00 00 00 00 00 00 A5
  18.002000 CANFD   1 Rx 182 CompactStatus 1 0 8 8 47 00 68 5A 00 00 00 00
  18.003000 1  300             Rx   d 8 00 00 00 00 DE 1B DE 1B
   18.004000 CANFD 2 Rx 184 Fd16Telemetry 1 0 A 16 DE 1B 00 00 EB 01 60 06 3D 01 9D 1C 66 09 0C 01
  18.005000 1  310             Tx   d 8 80 20 03 40 00 00 00 00
  18.006000 2  18FF50E5x       Rx   d 8 3F FB 03 59 05 42 05 12
  18.006500 2  5A0x            Rx   d 8 89 02 46 FE CA FE A0 01
  18.007000 2  400             Rx   r 0
  18.050000 1  123             Rx   d 8 69 01 47 00 AA 55 04 00
  18.100000 1  123             Rx   d 8 6A 01 47 00 AA 55 05 00
  18.101000 CANFD   1 Rx 2A0 VehicleDynamics 1 0 F 64 AE 1B CA 04 89 34 BF 00 8B 02 78 03 D4 12 13 00 00 00 00 00 00 00 00 00 00 00 00 00 00 00 00 00 00 00 00 00 00 00 00 00 0F 03 00 00 00 00 00 00 00 00 00 00 00 00 00 00 00 00 00 00 00 00 00 A5
  18.102000 CANFD   1 Rx 182 CompactStatus 1 0 8 8 47 00 6A 5A 00 00 00 00
  18.150000 1  123             Rx   d 8 6B 01 47 00 AA 55 06 00
  18.200000 1  123             Rx   d 8 6C 01 46 00 AA 55 07 00
  18.201000 CANFD   1 Rx 2A0 VehicleDynamics 1 0 F 64 89 1B C9 04 51 34 BE 00 88 02 78 03 D4 12 13 00 00 00 00 00 00 00 00 00 00 00 00 00 00 00 00 00 00 00 00 00 00 00 00 00 0F 03 00 00 00 00 00 00 00 00 00 00 00 00 00 00 00 00 00 00 00 00 00 A5
  18.202000 CANFD   1 Rx 182 CompactStatus 1 0 8 8 46 00 6C 5A 00 00 00 00
  18.250000 1  123             Rx   d 8 6D 01 46 00 AA 55 08 00
  18.253000 1  300             Rx   d 8 00 00 00 00 7A 1B 7A 1B
  18.300000 1  123             Rx   d 8 6E 01 46 00 AA 55 09 00
  18.301000 CANFD   1 Rx 2A0 VehicleDynamics 1 0 F 64 6E 1B C9 04 28 34 BC 00 85 02 78 03 D4 12 13 00 00 00 00 00 00 00 00 00 00 00 00 00 00 00 00 00 00 00 00 00 00 00 00 00 10 03 00 00 00 00 00 00 00 00 00 00 00 00 00 00 00 00 00 00 00 00 00 A5
  18.302000 CANFD   1 Rx 182 CompactStatus 1 0 8 8 46 00 6E 5A 00 00 00 00
  18.350000 1  123             Rx   d 8 6F 01 46 00 AA 55 0A 00
  18.400000 1  123             Rx   d 8 70 01 46 00 AA 55 0B 00
  18.401000 CANFD   1 Rx 2A0 VehicleDynamics 1 0 F 64 5D 1B C9 04 0D 34 BB 00 82 02 78 03 D4 12 13 00 00 00 00 00 00 00 00 00 00 00 00 00 00 00 00 00 00 00 00 00 00 00 00 00 10 03 00 00 00 00 00 00 00 00 00 00 00 00 00 00 00 00 00 00 00 00 00 A5
  18.402000 CANFD   1 Rx 182 CompactStatus 1 0 8 8 46 00 70 5A 00 00 00 00
   18.404000 CANFD 2 Rx 184 Fd16Telemetry 1 0 A 16 5D 1B 00 00 D5 00 A6 06 0D 01 60 20 66 09 16 01
  18.450000 1  123             Rx   d 8 71 01 46 00 AA 55 0C 00
  18.500000 1  123             Rx   d 8 72 01 46 00 AA 55 0D 00
  18.501000 CANFD   1 Rx 2A0 VehicleDynamics 1 0 F 64 58 1B C9 04 01 34 B9 00 7F 02 78 03 D4 12 13 00 00 00 00 00 00 00 00 00 00 00 00 00 00 00 00 00 00 00 00 00 00 00 00 00 10 03 00 00 00 00 00 00 00 00 00 00 00 00 00 00 00 00 00 00 00 00 00 A5
  18.502000 CANFD   1 Rx 182 CompactStatus 1 0 8 8 46 00 72 5A 00 00 00 00
  18.503000 1  300             Rx   d 8 00 00 00 00 58 1B 58 1B
  18.505000 1  310             Tx   d 8 80 20 03 40 00 00 00 00
  18.550000 1  123             Rx   d 8 73 01 46 00 AA 55 0E 00
  18.600000 1  123             Rx   d 8 74 01 46 00 AA 55 0F 00
  18.601000 CANFD   1 Rx 2A0 VehicleDynamics 1 0 F 64 5D 1B C9 04 03 34 B8 00 7C 02 78 03 D4 12 13 00 00 00 00 00 00 00 00 00 00 00 00 00 00 00 00 00 00 00 00 00 00 00 00 00 11 03 00 00 00 00 00 00 00 00 00 00 00 00 00 00 00 00 00 00 00 00 00 A5
  18.602000 CANFD   1 Rx 182 CompactStatus 1 0 8 8 46 00 74 5A 00 00 00 00
  18.650000 1  123             Rx   d 8 75 01 46 00 AA 55 10 00
  18.700000 1  123             Rx   d 8 76 01 46 00 AA 55 00 00
  18.701000 CANFD   1 Rx 2A0 VehicleDynamics 1 0 F 64 6E 1B C9 04 15 34 B6 00 79 02 78 03 D4 12 13 00 00 00 00 00 00 00 00 00 00 00 00 00 00 00 00 00 00 00 00 00 00 00 00 00 11 03 00 00 00 00 00 00 00 00 00 00 00 00 00 00 00 00 00 00 00 00 00 A5
  18.702000 CANFD   1 Rx 182 CompactStatus 1 0 8 8 46 00 76 5A 00 00 00 00
  18.750000 1  123             Rx   d 8 77 01 46 00 AA 55 01 00
  18.753000 1  300             Rx   d 8 00 00 00 00 7A 1B 7A 1B
  18.800000 1  123             Rx   d 8 78 01 46 00 AA 55 02 00
  18.801000 CANFD   1 Rx 2A0 VehicleDynamics 1 0 F 64 89 1B C9 04 35 34 B5 00 76 02 78 03 D4 12 13 00 00 00 00 00 00 00 00 00 00 00 00 00 00 00 00 00 00 00 00 00 00 00 00 00 12 03 00 00 00 00 00 00 00 00 00 00 00 00 00 00 00 00 00 00 00 00 00 A5
